Time Stamp,ID,Extended,Dir,Bus,LEN,D1,D2,D3,D4,D5,D6,D7,D8
18970798,000005F4,false,Rx,0,8,00,09,1C,46,00,00,00,01,
19045528,00000154,false,Rx,0,8,00,30,00,00,00,00,00,85,
19055526,00000154,false,Rx,0,8,02,30,00,00,00,00,20,A7,
19061257,00000266,false,Rx,0,8,8B,1A,00,00,12,12,12,00,
19061542,00000118,false,Rx,0,8,22,00,E8,20,00,00,01,00,
19065509,00000154,false,Rx,0,8,02,30,00,00,00,00,40,C7,
19071239,00000266,false,Rx,0,8,8B,1A,00,00,25,25,21,00,
19071523,00000526,false,Rx,0,8,43,80,00,00,03,00,00,00,
19071642,00000126,false,Rx,0,3,00,00,00,00,00,00,00,00,
19071927,00000118,false,Rx,0,8,23,01,E8,20,00,00,01,00,
19072048,000001D6,false,Rx,0,5,80,C0,0D,00,00,00,00,00,
19072258,00000268,false,Rx,0,5,25,25,FF,01,FF,00,00,00,
19072544,00000396,false,Rx,0,8,F7,FF,FF,28,FF,FF,FF,FF,
19075513,00000154,false,Rx,0,8,02,30,00,00,00,00,60,E7,
19075798,00000525,false,Rx,0,8,38,00,03,00,00,00,03,00,
19081277,00000266,false,Rx,0,8,8C,10,00,00,17,17,14,00,
19081480,00000656,false,Rx,0,8,0A,01,0C,32,FC,00,05,00,
19081764,00000526,false,Rx,0,8,2F,80,70,FE,00,00,00,00,
19081968,00000376,false,Rx,0,8,3A,39,28,50,39,95,7D,03,
19082261,00000118,false,Rx,0,8,24,02,E8,20,00,00,01,00,
19082464,00000556,false,Rx,0,7,39,39,00,39,00,28,FF,00,
19082665,00000757,false,Rx,0,8,31,00,00,00,00,00,00,00,
19082868,00000557,false,Rx,0,3,50,48,05,00,00,00,00,00,
19083073,00000757,false,Rx,0,8,42,00,00,00,00,00,00,2E,
19083367,00000356,false,Rx,0,8,00,00,00,00,00,40,02,00,
19083568,00000757,false,Rx,0,8,43,00,00,00,00,00,00,58,
19083853,00000357,false,Rx,0,8,04,00,00,00,00,00,00,00,
19084057,00000757,false,Rx,0,8,44,50,A9,39,B0,59,71,8B,
19084278,0000035A,false,Rx,0,8,00,00,00,00,00,00,00,00,
19084563,00000757,false,Rx,0,8,46,28,28,28,28,28,28,28,
19084764,0000035B,false,Rx,0,8,00,00,00,00,00,00,00,00,
19085051,00000757,false,Rx,0,8,48,28,28,00,00,00,00,00,
19085179,00000279,false,Rx,0,2,04,00,00,00,00,00,00,00,
19085380,00000757,false,Rx,0,8,2B,00,00,00,00,00,00,00,
19085666,00000154,false,Rx,0,8,02,30,00,00,00,00,80,07,
19085784,00000336,false,Rx,0,3,FF,01,FF,00,00,00,00,00,
19085988,000003B6,false,Rx,0,4,FF,FF,FF,FF,00,00,00,00,
19086281,000003D6,false,Rx,0,8,FF,FF,FF,FF,FF,FF,0D,FF,
19093943,00000266,false,Rx,0,8,8D,0B,00,00,02,02,01,00,
19094032,00000526,false,Rx,0,8,32,80,70,FE,00,00,00,00,
19094119,00000118,false,Rx,0,8,25,03,E8,20,00,00,01,00,
19095582,00000154,false,Rx,0,8,02,30,00,00,00,00,A0,27,
19101309,00000266,false,Rx,0,8,8D,04,00,00,06,06,05,00,
19101512,00000118,false,Rx,0,8,26,04,E8,20,00,00,01,00,
19105481,00000154,false,Rx,0,8,02,30,00,00,00,00,C0,47,
19111250,00000266,false,Rx,0,8,8D,0B,00,00,04,04,03,00,
19111535,00000118,false,Rx,0,8,27,05,E8,20,00,00,01,00,
19115513,00000154,false,Rx,0,8,02,30,00,00,00,00,E0,67,
19121240,00000266,false,Rx,0,8,8D,04,00,00,02,02,01,00,
19121526,00000118,false,Rx,0,8,28,06,E8,20,00,00,01,00,
19125498,00000154,false,Rx,0,8,02,30,00,00,00,00,00,87,
19131227,00000266,false,Rx,0,8,8D,08,00,00,05,05,04,00,
19131513,00000118,false,Rx,0,8,29,07,E8,20,00,00,01,00,
19135482,00000154,false,Rx,0,8,02,30,00,00,00,00,20,A7,
19141291,00000266,false,Rx,0,8,8D,05,00,00,05,05,04,00,
19141493,00000118,false,Rx,0,8,2A,08,E8,20,00,00,01,00,
19146324,00000304,false,Rx,0,8,00,00,00,00,00,00,80,00,
19146413,00000316,false,Rx,0,8,0A,01,0C,32,FC,00,09,00,
19146500,00000154,false,Rx,0,8,02,30,00,00,00,00,40,C7,
19151219,00000266,false,Rx,0,8,8D,04,00,00,01,01,00,00,
19151505,00000118,false,Rx,0,8,2B,09,E8,20,00,00,01,00,
19155471,00000154,false,Rx,0,8,02,30,00,00,00,00,60,E7,
19161219,00000266,false,Rx,0,8,8D,05,00,00,04,04,03,00,
19161504,00000526,false,Rx,0,8,5C,80,04,00,00,00,00,00,
19161706,00000118,false,Rx,0,8,2C,0A,E8,20,00,00,01,00,
19165512,00000154,false,Rx,0,8,02,30,00,00,00,00,80,07,
19171321,00000266,false,Rx,0,8,8D,05,00,00,01,01,00,00,
19171440,00000126,false,Rx,0,3,00,04,00,00,00,00,00,00,
19171724,00000118,false,Rx,0,8,2D,0B,E8,20,00,00,01,00,
19171925,000001D6,false,Rx,0,5,D0,C8,05,08,10,00,00,00,
19172046,00000268,false,Rx,0,5,01,01,FF,01,FF,00,00,00,
19172340,00000396,false,Rx,0,8,F7,FF,FF,28,FF,FF,FF,FF,
19175551,00000154,false,Rx,0,8,02,30,00,00,00,00,A0,27,
19181364,00000266,false,Rx,0,8,8D,07,00,00,04,04,04,00,
19181649,00000118,false,Rx,0,8,2E,0C,E8,20,00,00,01,00,
19185544,00000154,false,Rx,0,8,02,30,00,00,00,00,C0,47,
19191456,00000266,false,Rx,0,8,8C,07,00,00,02,02,01,00,
19191659,00000118,false,Rx,0,8,2F,0D,E8,20,00,00,01,00,
19195543,00000154,false,Rx,0,8,02,30,00,00,00,00,E0,67,
19201476,00000266,false,Rx,0,8,8C,0E,00,00,03,03,02,00,
19201678,00000118,false,Rx,0,8,30,0E,E8,20,00,00,01,00,
19205482,00000154,false,Rx,0,8,02,30,00,00,00,00,00,87,
19211495,00000266,false,Rx,0,8,8D,09,00,00,02,02,01,00,
19211698,00000118,false,Rx,0,8,31,0F,E8,20,00,00,01,00,
19215517,00000154,false,Rx,0,8,02,30,00,00,00,00,20,A7,
19221247,00000266,false,Rx,0,8,8C,04,00,00,02,02,01,00,
19221532,00000118,false,Rx,0,8,22,00,E8,20,00,00,01,00,
19225507,00000154,false,Rx,0,8,02,30,00,00,00,00,40,C7,
19231234,00000266,false,Rx,0,8,8D,0E,00,00,01,01,00,00,
19231519,00000118,false,Rx,0,8,23,01,E8,20,00,00,01,00,
19235487,00000154,false,Rx,0,8,02,30,00,00,00,00,60,E7,
19241297,00000266,false,Rx,0,8,8D,07,00,00,02,02,01,00,
19241499,00000118,false,Rx,0,8,24,02,E8,20,00,00,01,00,
19245549,00000154,false,Rx,0,8,02,30,00,00,00,00,80,07,
19251377,00000266,false,Rx,0,8,8C,04,00,00,04,04,03,00,
19251498,00000118,false,Rx,0,8,25,03,E8,20,00,00,01,00,
19255466,00000154,false,Rx,0,8,02,30,00,00,00,00,A0,27,
19261279,00000266,false,Rx,0,8,8C,04,00,00,01,01,00,00,
19261480,00000526,false,Rx,0,8,51,80,02,00,5D,13,00,00,
19261769,00000118,false,Rx,0,8,26,04,E8,20,00,00,01,00,
19265501,00000154,false,Rx,0,8,02,30,00,00,00,00,C0,47,
19265786,00000525,false,Rx,0,8,0A,00,48,01,40,00,00,00,
19271274,00000266,false,Rx,0,8,8D,13,00,00,02,02,01,00,
19271394,00000126,false,Rx,0,3,00,04,00,00,00,00,00,00,
19271596,00000526,false,Rx,0,8,52,80,02,00,5D,13,00,00,
19271797,000001D6,false,Rx,0,5,D0,C8,05,08,00,00,00,00,
19272084,00000118,false,Rx,0,8,27,05,E8,20,00,00,01,00,
19272211,00000268,false,Rx,0,5,02,02,FF,01,FF,00,00,00,
19272495,00000396,false,Rx,0,8,F7,FF,FF,28,FF,FF,FF,FF,
19275542,00000154,false,Rx,0,8,02,30,00,00,00,00,E0,67,
19281275,00000266,false,Rx,0,8,8C,0A,00,00,04,04,03,00,
19281477,00000526,false,Rx,0,8,50,80,02,00,5D,13,00,00,
19281762,00000118,false,Rx,0,8,28,06,E8,20,00,00,01,00,
19285496,00000154,false,Rx,0,8,02,30,00,00,00,00,00,87,
19291258,00000266,false,Rx,0,8,8C,04,00,00,01,01,00,00,
19291543,00000526,false,Rx,0,8,5A,80,08,00,00,00,00,00,
19291746,00000118,false,Rx,0,8,29,07,E8,20,00,00,01,00,
19295465,00000154,false,Rx,0,8,02,30,00,00,00,00,20,A7,
19301279,00000266,false,Rx,0,8,8C,04,00,00,04,04,03,00,
19305102,00000118,false,Rx,0,8,2A,08,E8,20,00,00,01,00,
19305480,00000154,false,Rx,0,8,02,30,00,00,00,00,40,C7,
19311205,00000266,false,Rx,0,8,8C,11,00,00,03,03,03,00,
19311491,00000118,false,Rx,0,8,2B,09,E8,20,00,00,01,00,
19315502,00000154,false,Rx,0,8,02,30,00,00,00,00,60,E7,
19321227,00000266,false,Rx,0,8,8C,07,00,00,03,03,02,00,
19321512,00000118,false,Rx,0,8,2C,0A,E8,20,00,00,01,00,
19325480,00000154,false,Rx,0,8,02,30,00,00,00,00,80,07,
19331289,00000266,false,Rx,0,8,8C,05,00,00,07,07,06,00,
19331574,00000118,false,Rx,0,8,2D,0B,E8,20,00,00,01,00,
19335459,00000154,false,Rx,0,8,02,30,00,00,00,00,A0,27,
19341357,00000266,false,Rx,0,8,8C,07,00,00,01,01,00,00,
19341643,00000118,false,Rx,0,8,2E,0C,E8,20,00,00,01,00,
19345527,00000154,false,Rx,0,8,02,30,00,00,00,00,C0,47,
19351424,00000266,false,Rx,0,8,8C,04,00,00,01,01,00,00,
19351709,00000118,false,Rx,0,8,2F,0D,E8,20,00,00,01,00,
19357070,00000154,false,Rx,0,8,02,30,00,00,00,00,E0,67,
19357165,00000525,false,Rx,0,8,0E,00,04,00,6B,13,03,00,
19361465,00000266,false,Rx,0,8,8C,07,00,00,04,04,03,00,
19361667,00000526,false,Rx,0,8,53,80,0E,00,00,00,00,00,
19361958,00000118,false,Rx,0,8,38,0E,F0,20,00,00,01,00,
19365513,00000154,false,Rx,0,8,02,30,00,00,00,00,00,87,
19371404,00000266,false,Rx,0,8,8C,04,00,00,02,02,01,00,
19371606,00000126,false,Rx,0,3,00,04,00,00,00,00,00,00,
19371808,00000118,false,Rx,0,8,39,0F,F0,20,00,00,01,00,
19372015,000001D6,false,Rx,0,5,D0,C8,05,08,00,00,00,00,
19372217,00000268,false,Rx,0,5,02,02,FF,01,FF,00,00,00,
19372510,00000396,false,Rx,0,8,F7,FF,FF,28,FF,FF,FF,FF,
19375475,00000154,false,Rx,0,8,02,30,00,00,00,00,20,A7,
19381204,00000266,false,Rx,0,8,8C,0E,00,00,02,02,01,00,
19381490,00000118,false,Rx,0,8,2A,00,F0,20,00,00,01,00,
19385470,00000154,false,Rx,0,8,02,30,00,00,00,00,40,C7,
19391214,00000266,false,Rx,0,8,8C,07,00,00,04,04,03,00,
19391499,00000118,false,Rx,0,8,2B,01,F0,20,00,00,01,00,
19395466,00000154,false,Rx,0,8,02,30,00,00,00,00,60,E7,
19401278,00000266,false,Rx,0,8,8C,06,00,00,04,04,03,00,
19401480,00000118,false,Rx,0,8,2C,02,F0,20,00,00,01,00,
19405530,00000154,false,Rx,0,8,02,30,00,00,00,00,80,07,
19411264,00000266,false,Rx,0,8,8C,04,00,00,04,04,03,00,
19411467,00000118,false,Rx,0,8,2D,03,F0,20,00,00,01,00,
19415476,00000154,false,Rx,0,8,02,30,00,00,00,00,A0,27,
19421250,00000266,false,Rx,0,8,8C,0C,00,00,04,04,03,00,
19421451,00000118,false,Rx,0,8,2E,04,F0,20,00,00,01,00,
19425513,00000154,false,Rx,0,8,02,30,00,00,00,00,C0,47,
19431240,00000266,false,Rx,0,8,8C,08,00,00,02,02,01,00,
19431524,00000118,false,Rx,0,8,2F,05,F0,20,00,00,01,00,
19435496,00000154,false,Rx,0,8,02,30,00,00,00,00,E0,67,
19441222,00000266,false,Rx,0,8,8C,04,00,00,05,05,04,00,
19441508,00000118,false,Rx,0,8,30,06,F0,20,00,00,01,00,
19445475,00000154,false,Rx,0,8,02,30,00,00,00,00,00,87,
19451199,00000266,false,Rx,0,8,8C,04,00,00,02,02,01,00,
19451484,00000118,false,Rx,0,8,31,07,F0,20,00,00,01,00,
19455452,00000154,false,Rx,0,8,02,30,00,00,00,00,20,A7,
19461870,00000266,false,Rx,0,8,8C,06,00,00,01,01,00,00,
19461961,00000526,false,Rx,0,8,9A,80,E3,04,00,FA,44,00,
19462048,00000118,false,Rx,0,8,32,08,F0,20,00,00,01,00,
19465449,00000154,false,Rx,0,8,02,30,00,00,00,00,40,C7,
19471271,00000266,false,Rx,0,8,8C,05,00,00,02,02,02,00,
19471391,00000126,false,Rx,0,3,00,04,00,00,00,00,00,00,
19471675,00000118,false,Rx,0,8,33,09,F0,20,00,00,01,00,
19471794,000001D6,false,Rx,0,5,D0,C8,05,08,00,00,00,00,
19472002,00000268,false,Rx,0,5,02,02,FF,01,FF,00,00,00,
19472212,00000396,false,Rx,0,8,F7,FF,FF,28,FF,FF,FF,FF,
19475513,00000154,false,Rx,0,8,02,30,00,00,00,00,60,E7,
19481324,00000266,false,Rx,0,8,8C,04,00,00,03,03,02,00,
19481526,00000118,false,Rx,0,8,34,0A,F0,20,00,00,01,00,
19485507,00000154,false,Rx,0,8,02,30,00,00,00,00,80,07,
19491416,00000266,false,Rx,0,8,8C,04,00,00,03,03,02,00,
19491618,00000118,false,Rx,0,8,35,0B,F0,20,00,00,01,00,
19495513,00000154,false,Rx,0,8,02,30,00,00,00,00,A0,27,
19501489,00000266,false,Rx,0,8,8C,05,00,00,02,02,01,00,
19501692,00000118,false,Rx,0,8,36,0C,F0,20,00,00,01,00,
19505499,00000154,false,Rx,0,8,02,30,00,00,00,00,C0,47,
19511472,00000266,false,Rx,0,8,8C,0B,00,00,03,03,02,00,
19511758,00000118,false,Rx,0,8,37,0D,F0,20,00,00,01,00,
19515482,00000154,false,Rx,0,8,02,30,00,00,00,00,E0,67,
19521505,00000266,false,Rx,0,8,8D,16,00,00,01,01,00,00,
19521707,00000118,false,Rx,0,8,38,0E,F0,20,00,00,01,00,
19525434,00000154,false,Rx,0,8,02,30,00,00,00,00,00,87,
19531496,00000266,false,Rx,0,8,8C,06,00,00,03,03,02,00,
19531697,00000118,false,Rx,0,8,39,0F,F0,20,00,00,01,00,
19535507,00000154,false,Rx,0,8,02,30,00,00,00,00,20,A7,
19541266,00000266,false,Rx,0,8,8C,04,00,00,01,01,01,00,
19541551,00000118,false,Rx,0,8,2A,00,F0,20,00,00,01,00,
19545440,00000154,false,Rx,0,8,02,30,00,00,00,00,40,C7,
19551252,00000266,false,Rx,0,8,8C,04,00,00,02,02,01,00,
19551453,00000118,false,Rx,0,8,2B,01,F0,20,00,00,01,00,
19555512,00000154,false,Rx,0,8,02,30,00,00,00,00,60,E7,
19561240,00000266,false,Rx,0,8,8C,04,00,00,03,03,02,00,
19561525,00000118,false,Rx,0,8,2C,02,F0,20,00,00,01,00,
19566721,00000154,false,Rx,0,8,02,30,00,00,00,00,80,07,
19571281,00000266,false,Rx,0,8,8D,09,00,00,02,02,01,00,
19571482,00000118,false,Rx,0,8,2D,03,F0,20,00,00,01,00,
19571684,00000126,false,Rx,0,3,00,04,00,00,00,00,00,00,
19571886,000001D6,false,Rx,0,5,D0,C8,05,08,00,00,00,00,
19572092,00000268,false,Rx,0,5,02,02,FF,01,FF,00,00,00,
19572302,00000396,false,Rx,0,8,F7,FF,FF,28,FF,FF,FF,FF,
19575436,00000154,false,Rx,0,8,02,30,00,00,00,00,A0,27,
19581249,00000266,false,Rx,0,8,8C,04,00,00,01,01,00,00,
19581534,00000526,false,Rx,0,8,F3,80,00,00,00,00,00,00,
19581736,00000118,false,Rx,0,8,2E,04,F0,20,00,00,01,00,
19585465,00000154,false,Rx,0,8,02,30,00,00,00,00,C0,47,
19591234,00000266,false,Rx,0,8,8C,04,00,00,03,03,02,00,
19591519,00000118,false,Rx,0,8,2F,05,F0,20,00,00,01,00,
19595487,00000154,false,Rx,0,8,02,30,00,00,00,00,E0,67,
19595689,00000525,false,Rx,0,8,35,00,01,00,00,00,00,00,
19601252,00000266,false,Rx,0,8,8C,05,00,00,05,05,04,00,
19601453,00000526,false,Rx,0,8,98,80,06,6A,6A,32,00,00,
19601738,00000118,false,Rx,0,8,30,06,F0,20,00,00,01,00,
19605456,00000154,false,Rx,0,8,02,30,00,00,00,00,00,87,
19611272,00000266,false,Rx,0,8,8C,08,00,00,02,02,01,00,
19611474,00000526,false,Rx,0,8,9B,80,04,00,00,00,00,00,
19611760,00000118,false,Rx,0,8,31,07,F0,20,00,00,01,00,
19615479,00000154,false,Rx,0,8,02,30,00,00,00,00,20,A7,
19621290,00000266,false,Rx,0,8,8C,09,00,00,02,02,01,00,
19621493,00000118,false,Rx,0,8,32,08,F0,20,00,00,01,00,
19625476,00000154,false,Rx,0,8,02,30,00,00,00,00,40,C7,
19631287,00000266,false,Rx,0,8,8C,04,00,00,02,02,01,00,
19631490,00000118,false,Rx,0,8,33,09,F0,20,00,00,01,00,
19635458,00000154,false,Rx,0,8,02,30,00,00,00,00,60,E7,
19641357,00000266,false,Rx,0,8,8C,04,00,00,08,08,07,00,
19641560,00000118,false,Rx,0,8,34,0A,F0,20,00,00,01,00,
19645444,00000154,false,Rx,0,8,02,30,00,00,00,00,80,07,
19651424,00000266,false,Rx,0,8,8D,04,00,00,07,07,06,00,
19651627,00000118,false,Rx,0,8,35,0B,F0,20,00,00,01,00,
19655434,00000154,false,Rx,0,8,02,30,08,00,00,00,A0,2F,
19661496,00000266,false,Rx,0,8,8C,0A,00,00,06,06,05,00,
19661698,00000118,false,Rx,0,8,36,0C,F0,20,00,00,01,00,
19665436,00000154,false,Rx,0,8,02,30,08,00,00,00,C0,4F,
19671930,00000266,false,Rx,0,8,8C,09,00,00,01,01,00,00,
19672053,00000118,false,Rx,0,8,37,0D,F0,20,00,00,01,00,
19672140,00000126,false,Rx,0,3,00,04,00,00,00,00,00,00,
19672264,000001D6,false,Rx,0,5,D0,C8,05,08,00,00,00,00,
19672351,00000268,false,Rx,0,5,01,01,FF,01,FF,00,00,00,
19672477,00000396,false,Rx,0,8,F7,FF,FF,28,FF,FF,FF,FF,
19675454,00000154,false,Rx,0,8,02,30,08,00,00,00,E0,6F,
19681519,00000266,false,Rx,0,8,8C,04,00,00,02,02,01,00,
19681722,00000118,false,Rx,0,8,38,0E,F0,20,00,00,01,00,
19685454,00000154,false,Rx,0,8,02,30,08,00,00,00,00,8F,
19691530,00000266,false,Rx,0,8,8C,04,00,00,03,03,02,00,
19691733,00000118,false,Rx,0,8,39,0F,F0,20,00,00,01,00,
19695453,00000154,false,Rx,0,8,02,30,08,00,00,00,20,AF,
19701272,00000266,false,Rx,0,8,8C,08,00,00,01,01,01,00,
19701474,00000118,false,Rx,0,8,2A,00,F0,20,00,00,01,00,
19705442,00000154,false,Rx,0,8,02,30,08,00,00,00,40,CF,
19711258,00000266,false,Rx,0,8,8C,0B,00,00,04,04,03,00,
19711460,00000118,false,Rx,0,8,2B,01,F0,20,00,00,01,00,
19715517,00000154,false,Rx,0,8,02,30,08,00,00,00,60,EF,
19721247,00000266,false,Rx,0,8,8C,04,00,00,04,04,03,00,
19721532,00000118,false,Rx,0,8,2C,02,F0,20,00,00,01,00,
19725470,00000154,false,Rx,0,8,02,30,08,00,00,00,80,0F,
19731203,00000266,false,Rx,0,8,8C,04,00,00,03,03,02,00,
19731487,00000118,false,Rx,0,8,2D,03,F0,20,00,00,01,00,
19735456,00000154,false,Rx,0,8,02,30,08,00,00,00,A0,2F,
19741269,00000266,false,Rx,0,8,8C,0A,00,00,04,04,03,00,
19741470,00000118,false,Rx,0,8,2E,04,F0,20,00,00,01,00,
19745440,00000154,false,Rx,0,8,02,30,08,00,00,00,C0,4F,
19751252,00000266,false,Rx,0,8,8C,05,00,00,04,04,03,00,
19751453,00000118,false,Rx,0,8,2F,05,F0,20,00,00,01,00,
19755430,00000154,false,Rx,0,8,02,30,08,00,00,00,E0,6F,
19761239,00000266,false,Rx,0,8,8D,04,00,00,03,03,02,00,
19761524,00000118,false,Rx,0,8,30,06,F0,20,00,00,01,00,
19765413,00000154,false,Rx,0,8,02,30,08,00,00,00,00,8F,
19771220,00000266,false,Rx,0,8,8D,04,00,00,02,02,02,00,
19771505,00000118,false,Rx,0,8,31,07,F0,20,00,00,01,00,
19771624,00000126,false,Rx,0,3,00,04,00,00,00,00,00,00,
19771826,000001D6,false,Rx,0,5,D0,C8,05,08,00,00,00,00,
19772030,00000268,false,Rx,0,5,02,02,FF,01,FF,00,00,00,
19772240,00000396,false,Rx,0,8,F7,FF,FF,28,FF,FF,FF,FF,
19777244,00000154,false,Rx,0,8,02,30,08,00,00,00,20,AF,
19781213,00000266,false,Rx,0,8,8C,0A,00,00,02,02,01,00,
19781499,00000118,false,Rx,0,8,32,08,F0,20,00,00,01,00,
19785477,00000154,false,Rx,0,8,02,30,08,00,00,00,40,CF,
19791244,00000266,false,Rx,0,8,8C,0D,00,00,03,03,02,00,
19791530,00000118,false,Rx,0,8,33,09,F0,20,00,00,01,00,
19795418,00000154,false,Rx,0,8,02,30,08,00,00,00,60,EF,
19801310,00000266,false,Rx,0,8,8C,05,00,00,05,05,04,00,
19801596,00000118,false,Rx,0,8,34,0A,F0,20,00,00,01,00,
19805481,00000154,false,Rx,0,8,02,30,08,00,00,00,80,0F,
19811372,00000266,false,Rx,0,8,8C,07,00,00,04,04,03,00,
19811658,00000118,false,Rx,0,8,35,0B,F0,20,00,00,01,00,
19815459,00000154,false,Rx,0,8,02,30,08,00,00,00,A0,2F,
19815661,00000525,false,Rx,0,8,37,00,D9,F9,8A,FF,06,00,
19821471,00000266,false,Rx,0,8,8C,06,00,00,03,03,02,00,
19821755,00000118,false,Rx,0,8,36,0C,F0,20,00,00,01,00,
19825421,00000154,false,Rx,0,8,02,30,08,00,00,00,C0,4F,
19831482,00000266,false,Rx,0,8,8D,04,00,00,01,01,00,00,
19831684,00000118,false,Rx,0,8,37,0D,F0,20,00,00,01,00,
19835487,00000154,false,Rx,0,8,02,30,08,00,00,00,E0,6F,
19841462,00000266,false,Rx,0,8,8C,04,00,00,02,02,02,00,
19841747,00000118,false,Rx,0,8,38,0E,F0,20,00,00,01,00,
19845466,00000154,false,Rx,0,8,02,30,08,00,00,00,00,8F,
19851188,00000266,false,Rx,0,8,8C,07,00,00,03,03,02,00,
19851473,00000118,false,Rx,0,8,39,0F,F0,20,00,00,01,00,
19855445,00000154,false,Rx,0,8,02,30,08,00,00,00,20,AF,
19861263,00000266,false,Rx,0,8,8D,09,00,00,05,05,04,00,
19861465,00000118,false,Rx,0,8,2A,00,F0,20,00,00,01,00,
19865450,00000154,false,Rx,0,8,02,30,08,00,00,00,40,CF,
19871271,00000266,false,Rx,0,8,8C,06,00,00,01,01,00,00,
19871474,00000118,false,Rx,0,8,2B,01,F0,20,00,00,01,00,
19871675,00000126,false,Rx,0,3,00,04,00,00,00,00,00,00,
19871877,000001D6,false,Rx,0,5,D0,C8,05,08,00,00,00,00,
19871996,00000268,false,Rx,0,5,01,01,FF,01,FF,00,00,00,
19872290,00000396,false,Rx,0,8,F7,FF,FF,28,FF,FF,FF,FF,
19875507,00000154,false,Rx,0,8,02,30,08,00,00,00,60,EF,
19881858,00000266,false,Rx,0,8,8C,04,00,00,04,04,03,00,
19881949,00000118,false,Rx,0,8,2C,02,F0,20,00,00,01,00,
19885430,00000154,false,Rx,0,8,02,30,08,00,00,00,80,0F,
19891251,00000266,false,Rx,0,8,8D,0B,00,00,02,02,01,00,
19891453,00000118,false,Rx,0,8,2D,03,F0,20,00,00,01,00,
19895429,00000154,false,Rx,0,8,02,30,08,00,00,00,A0,2F,
19901238,00000266,false,Rx,0,8,8C,04,00,00,03,03,02,00,
19901440,00000118,false,Rx,0,8,2E,04,F0,20,00,00,01,00,
19905410,00000154,false,Rx,0,8,02,30,08,00,00,00,C0,4F,
19911218,00000266,false,Rx,0,8,8C,09,00,00,04,04,03,00,
19911503,00000118,false,Rx,0,8,2F,05,F0,20,00,00,01,00,
19915471,00000154,false,Rx,0,8,02,30,08,00,00,00,E0,6F,
19921192,00000266,false,Rx,0,8,8C,0E,00,00,01,01,00,00,
19921477,00000118,false,Rx,0,8,30,06,F0,20,00,00,01,00,
19925442,00000154,false,Rx,0,8,02,30,08,00,00,00,00,8F,
19931234,00000266,false,Rx,0,8,8C,04,00,00,03,03,02,00,
19931437,00000118,false,Rx,0,8,31,07,F0,20,00,00,01,00,
19935437,00000154,false,Rx,0,8,02,30,08,00,00,00,20,AF,
19941250,00000266,false,Rx,0,8,8D,04,00,00,01,01,00,00,
19941452,00000118,false,Rx,0,8,32,08,F0,20,00,00,01,00,
19945430,00000154,false,Rx,0,8,02,30,08,00,00,00,40,CF,
19951239,00000266,false,Rx,0,8,8C,08,00,00,04,04,03,00,
19951524,00000118,false,Rx,0,8,33,09,F0,20,00,00,01,00,
19955413,00000154,false,Rx,0,8,02,30,08,00,00,00,60,EF,
19961302,00000266,false,Rx,0,8,8C,06,00,00,02,02,01,00,
19961588,00000118,false,Rx,0,8,34,0A,F0,20,00,00,01,00,
19965390,00000154,false,Rx,0,8,02,30,08,00,00,00,80,0F,
19971368,00000266,false,Rx,0,8,8C,0A,00,00,05,05,04,00,
19971653,00000118,false,Rx,0,8,35,0B,F0,20,00,00,01,00,
19971772,00000126,false,Rx,0,3,00,08,00,00,00,00,00,00,
19971975,000001D6,false,Rx,0,5,D0,C8,05,08,00,00,00,00,
19972184,00000268,false,Rx,0,5,05,05,FF,01,FF,00,00,00,
19972468,00000396,false,Rx,0,8,F7,FF,FF,28,FF,FF,FF,FF,
19975437,00000154,false,Rx,0,8,02,30,08,00,00,00,A0,2F,
19981501,00000266,false,Rx,0,8,8C,0B,00,00,02,02,01,00,
19981704,00000118,false,Rx,0,8,36,0C,F0,20,00,00,01,00,
19986548,00000154,false,Rx,0,8,02,30,08,00,00,00,C0,4F,
19991457,00000266,false,Rx,0,8,8C,04,00,00,01,01,00,00,
19991659,00000118,false,Rx,0,8,37,0D,F0,20,00,00,01,00,
19995460,00000154,false,Rx,0,8,02,30,08,00,00,00,E0,6F,
20001440,00000266,false,Rx,0,8,8C,05,00,00,04,04,03,00,
20001725,00000118,false,Rx,0,8,38,0E,F0,20,00,00,01,00,
20005443,00000154,false,Rx,0,8,02,30,08,00,00,00,00,8F,
20011251,00000266,false,Rx,0,8,8C,0A,00,00,02,02,01,00,
20011453,00000118,false,Rx,0,8,39,0F,F0,20,00,00,01,00,
20015430,00000154,false,Rx,0,8,02,30,08,00,00,00,20,AF,
20021234,00000266,false,Rx,0,8,8C,0E,00,00,08,08,07,00,
20021436,00000118,false,Rx,0,8,2A,00,F0,20,00,00,01,00,
20025404,00000154,false,Rx,0,8,02,30,08,00,00,00,40,CF,
20031240,00000266,false,Rx,0,8,8C,06,00,00,02,02,02,00,
20031451,00000118,false,Rx,0,8,2B,01,F0,20,00,00,01,00,
20035436,00000154,false,Rx,0,8,02,30,08,00,00,00,60,EF,
20041180,00000266,false,Rx,0,8,8C,04,00,00,04,04,03,00,
20041466,00000118,false,Rx,0,8,2C,02,F0,20,00,00,01,00,
20045437,00000154,false,Rx,0,8,02,30,08,00,00,00,80,0F,
20051246,00000266,false,Rx,0,8,8C,04,00,00,01,01,00,00,
20051448,00000118,false,Rx,0,8,2D,03,F0,20,00,00,01,00,
20055424,00000154,false,Rx,0,8,02,30,08,00,00,00,A0,2F,
20061227,00000266,false,Rx,0,8,8C,0B,00,00,01,01,00,00,
20061428,00000118,false,Rx,0,8,2E,04,F0,20,00,00,01,00,
20065410,00000154,false,Rx,0,8,02,30,08,00,00,00,C0,4F,
20071214,00000266,false,Rx,0,8,8C,04,00,00,02,02,01,00,
20071415,00000118,false,Rx,0,8,2F,05,F0,20,00,00,01,00,
20071617,00000126,false,Rx,0,3,00,08,00,00,00,00,00,00,
20071818,000001D6,false,Rx,0,5,D0,C8,05,08,00,00,00,00,
20071937,00000268,false,Rx,0,5,02,02,FF,01,FF,00,00,00,
20072231,00000396,false,Rx,0,8,F7,FF,FF,28,FF,FF,FF,FF,
20075443,00000154,false,Rx,0,8,02,30,08,00,00,00,E0,6F,
20081175,00000266,false,Rx,0,8,8C,08,00,00,02,02,01,00,
20081460,00000656,false,Rx,0,8,0B,00,1C,46,00,00,00,00,
20081661,00000118,false,Rx,0,8,30,06,F0,20,00,00,01,00,
20081949,00000376,false,Rx,0,8,3A,39,28,50,39,95,7D,03,
20082159,00000757,false,Rx,0,8,31,00,00,00,00,00,00,00,
20082362,00000556,false,Rx,0,7,39,39,00,3A,00,28,00,00,
20082647,00000757,false,Rx,0,8,42,00,01,01,00,05,04,38,
20082766,00000557,false,Rx,0,3,43,48,05,00,00,00,00,00,
20082974,00000757,false,Rx,0,8,43,00,2E,26,00,55,41,75,
20083267,00000356,false,Rx,0,8,00,00,00,00,00,40,02,00,
20083469,00000757,false,Rx,0,8,44,50,A9,49,B0,69,71,8B,
20083754,00000357,false,Rx,0,8,04,80,07,08,00,00,00,00,
20083961,00000757,false,Rx,0,8,46,39,39,28,39,39,39,39,
20084173,0000035A,false,Rx,0,8,00,00,80,06,00,00,00,00,
20084458,00000757,false,Rx,0,8,48,28,28,00,00,00,00,00,
20084661,0000035B,false,Rx,0,8,00,00,00,00,00,00,04,00,
20084949,00000757,false,Rx,0,8,2B,00,00,00,00,00,00,00,
20085068,00000279,false,Rx,0,2,04,00,00,00,00,00,00,00,
20085187,00000336,false,Rx,0,3,FF,01,FF,00,00,00,00,00,
20085472,00000154,false,Rx,0,8,02,30,08,00,00,00,00,8F,
20085674,000003B6,false,Rx,0,4,FF,FF,FF,FF,00,00,00,00,
20085875,000003D6,false,Rx,0,8,FF,FF,FF,FF,FF,FF,11,FF,
20094622,00000266,false,Rx,0,8,8C,09,00,00,07,07,06,00,
20094710,00000118,false,Rx,0,8,31,07,F0,20,00,00,01,00,
20095419,00000154,false,Rx,0,8,02,30,08,00,00,00,20,AF,
20101226,00000266,false,Rx,0,8,8C,08,00,00,01,01,01,00,
20101428,00000118,false,Rx,0,8,32,08,F0,20,00,00,01,00,
20105397,00000154,false,Rx,0,8,02,30,08,00,00,00,40,CF,
20111289,00000266,false,Rx,0,8,8C,04,00,00,02,02,01,00,
20111491,00000118,false,Rx,0,8,33,09,F0,20,00,00,01,00,
20115376,00000154,false,Rx,0,8,02,30,08,00,00,00,60,EF,
20121358,00000266,false,Rx,0,8,8C,06,00,00,03,03,02,00,
20121560,00000118,false,Rx,0,8,34,0A,F0,20,00,00,01,00,
20125444,00000154,false,Rx,0,8,02,30,08,00,00,00,80,0F,
20131426,00000266,false,Rx,0,8,8C,04,00,00,03,03,02,00,
20131628,00000118,false,Rx,0,8,35,0B,F0,20,00,00,01,00,
20135389,00000154,false,Rx,0,8,02,30,08,00,00,00,A0,2F,
20141451,00000266,false,Rx,0,8,8C,04,00,00,01,01,00,00,
20141654,00000118,false,Rx,0,8,36,0C,F0,20,00,00,01,00,
20144370,00000304,false,Rx,0,8,00,22,01,00,00,00,D0,04,
20146947,00000316,false,Rx,0,8,0B,00,1C,46,00,00,00,00,
20147036,00000154,false,Rx,0,8,02,30,08,00,00,00,C0,4F,
20147123,00000525,false,Rx,0,8,11,00,01,00,00,00,00,00,
20151435,00000266,false,Rx,0,8,8C,04,00,00,04,04,03,00,
20151637,00000118,false,Rx,0,8,37,0D,F0,20,00,00,01,00,
20155440,00000154,false,Rx,0,8,02,30,08,00,00,00,E0,6F,
20155642,00000525,false,Rx,0,8,3B,00,01,00,00,00,00,00,
20161449,00000266,false,Rx,0,8,8C,07,00,00,02,02,01,00,
20161652,00000526,false,Rx,0,8,69,80,01,00,00,00,00,00,
20161936,00000118,false,Rx,0,8,38,0E,F0,20,00,00,01,00,
20165410,00000154,false,Rx,0,8,02,30,08,00,00,00,00,8F,
20171218,00000266,false,Rx,0,8,8C,07,00,00,05,05,04,00,
20171420,00000526,false,Rx,0,8,6E,80,01,00,00,00,00,00,
20171704,00000118,false,Rx,0,8,39,0F,F0,20,00,00,01,00,
20171822,00000126,false,Rx,0,3,00,08,00,00,00,00,00,00,
20172032,000001D6,false,Rx,0,5,D0,C8,05,08,00,00,00,00,
20172240,00000268,false,Rx,0,5,05,05,FF,01,FF,00,00,00,
20172525,00000396,false,Rx,0,8,F7,FF,FF,28,FF,FF,FF,FF,
20175410,00000154,false,Rx,0,8,02,30,08,00,00,00,20,AF,
20181217,00000266,false,Rx,0,8,8C,04,00,00,04,04,03,00,
20181420,00000526,false,Rx,0,8,EA,80,01,00,00,00,00,00,
20181704,00000118,false,Rx,0,8,2A,00,F0,20,00,00,01,00,
20185458,00000154,false,Rx,0,8,02,30,08,00,00,00,40,CF,
20191208,00000266,false,Rx,0,8,8C,04,00,00,01,01,00,00,
20191410,00000526,false,Rx,0,8,E7,80,01,00,00,00,00,00,
20191695,00000118,false,Rx,0,8,2B,01,F0,20,00,00,01,00,
20195418,00000154,false,Rx,0,8,02,30,08,00,00,00,60,EF,
20201228,00000266,false,Rx,0,8,8C,04,00,00,04,04,03,00,
20201430,00000118,false,Rx,0,8,2C,02,F0,20,00,00,01,00,
20205399,00000154,false,Rx,0,8,02,30,08,00,00,00,80,0F,
20211207,00000266,false,Rx,0,8,8C,08,00,00,03,03,02,00,
20211409,00000118,false,Rx,0,8,2D,03,F0,20,00,00,01,00,
20215376,00000154,false,Rx,0,8,02,30,08,00,00,00,A0,2F,
20221192,00000266,false,Rx,0,8,8C,04,00,00,02,02,01,00,
20221395,00000118,false,Rx,0,8,2E,04,F0,20,00,00,01,00,
20225365,00000154,false,Rx,0,8,02,30,08,00,00,00,C0,4F,
20231181,00000266,false,Rx,0,8,8C,04,00,00,04,04,03,00,
20231465,00000118,false,Rx,0,8,2F,05,F0,20,00,00,01,00,
20235382,00000154,false,Rx,0,8,02,30,08,00,00,00,E0,6F,
20241204,00000266,false,Rx,0,8,8C,04,00,00,03,03,02,00,
20241406,00000118,false,Rx,0,8,30,06,F0,20,00,00,01,00,
20245373,00000154,false,Rx,0,8,02,30,08,00,00,00,00,8F,
20252790,00000266,false,Rx,0,8,8C,09,00,00,02,02,01,00,
20252878,00000118,false,Rx,0,8,31,07,F0,20,00,00,01,00,
20255432,00000154,false,Rx,0,8,02,30,08,00,00,00,20,AF,
20261160,00000266,false,Rx,0,8,8C,0D,00,00,03,03,02,00,
20261445,00000118,false,Rx,0,8,32,08,F0,20,00,00,01,00,
20265429,00000154,false,Rx,0,8,02,30,08,00,00,00,40,CF,
20271243,00000266,false,Rx,0,8,8C,08,00,00,01,01,01,00,
20271527,00000118,false,Rx,0,8,33,09,F0,20,00,00,01,00,
20271646,00000126,false,Rx,0,3,00,08,00,00,00,00,00,00,
20271847,000001D6,false,Rx,0,5,D0,C8,05,08,00,00,00,00,
20272049,00000268,false,Rx,0,5,01,01,FF,01,FF,00,00,00,
20272342,00000396,false,Rx,0,8,F7,FF,FF,28,FF,FF,FF,FF,
20275389,00000154,false,Rx,0,8,02,30,08,00,00,00,60,EF,
20281365,00000266,false,Rx,0,8,8C,08,00,00,03,03,02,00,
20281567,00000118,false,Rx,0,8,34,0A,F0,20,00,00,01,00,
20285381,00000154,false,Rx,0,8,02,30,08,00,00,00,80,0F,
20291405,00000266,false,Rx,0,8,8C,06,00,00,02,02,01,00,
20291607,00000118,false,Rx,0,8,35,0B,F0,20,00,00,01,00,
20295410,00000154,false,Rx,0,8,02,30,08,00,00,00,A0,2F,
20301383,00000266,false,Rx,0,8,8C,04,00,00,06,06,05,00,
20301668,00000118,false,Rx,0,8,36,0C,F0,20,00,00,01,00,
20305695,00000154,false,Rx,0,8,02,30,08,00,00,00,C0,4F,
20311435,00000266,false,Rx,0,8,8C,08,00,00,05,05,04,00,
20311637,00000118,false,Rx,0,8,37,0D,F0,20,00,00,01,00,
20315357,00000154,false,Rx,0,8,02,30,08,00,00,00,E0,6F,
20321419,00000266,false,Rx,0,8,8C,0E,00,00,02,02,01,00,
20321621,00000118,false,Rx,0,8,38,0E,F0,20,00,00,01,00,
20325428,00000154,false,Rx,0,8,02,30,08,00,00,00,00,8F,
20331155,00000266,false,Rx,0,8,8C,04,00,00,01,01,00,00,
20331440,00000118,false,Rx,0,8,39,0F,F0,20,00,00,01,00,
20335410,00000154,false,Rx,0,8,02,30,08,00,00,00,20,AF,
20341175,00000266,false,Rx,0,8,8C,08,00,00,02,02,01,00,
20341377,00000118,false,Rx,0,8,2A,00,F0,20,00,00,01,00,
20345435,00000154,false,Rx,0,8,02,30,08,00,00,00,40,CF,
20351164,00000266,false,Rx,0,8,8C,04,00,00,02,02,01,00,
20351449,00000118,false,Rx,0,8,2B,01,F0,20,00,00,01,00,
20355424,00000154,false,Rx,0,8,02,30,08,00,00,00,60,EF,
20361142,00000266,false,Rx,0,8,8C,04,00,00,02,02,01,00,
20361435,00000118,false,Rx,0,8,2C,02,F0,20,00,00,01,00,
20365404,00000154,false,Rx,0,8,02,30,08,00,00,00,80,0F,
20371123,00000266,false,Rx,0,8,8C,06,00,00,04,04,03,00,
20371417,00000118,false,Rx,0,8,2D,03,F0,20,00,00,01,00,
20371536,00000126,false,Rx,0,3,00,08,00,00,00,00,00,00,
20371738,000001D6,false,Rx,0,5,D0,C8,05,08,00,00,00,00,
20371939,00000268,false,Rx,0,5,04,04,FF,01,FF,00,00,00,
20372141,00000396,false,Rx,0,8,F7,FF,FF,28,FF,FF,FF,FF,
20375360,00000154,false,Rx,0,8,02,30,08,00,00,00,A0,2F,
20381175,00000266,false,Rx,0,8,8C,07,00,00,01,01,01,00,
20381377,00000118,false,Rx,0,8,2E,04,F0,20,00,00,01,00,
20385359,00000154,false,Rx,0,8,02,30,08,00,00,00,C0,4F,
20391189,00000266,false,Rx,0,8,8C,06,00,00,01,01,00,00,
20391392,00000118,false,Rx,0,8,2F,05,F0,20,00,00,01,00,
20395356,00000154,false,Rx,0,8,02,30,08,00,00,00,E0,6F,
20401170,00000266,false,Rx,0,8,8C,10,00,00,03,03,02,00,
20401372,00000118,false,Rx,0,8,30,06,F0,20,00,00,01,00,
20405346,00000154,false,Rx,0,8,02,30,08,00,00,00,00,8F,
20411141,00000266,false,Rx,0,8,8C,09,00,00,05,05,04,00,
20411434,00000118,false,Rx,0,8,31,07,F0,20,00,00,01,00,
20415402,00000154,false,Rx,0,8,02,30,08,00,00,00,20,AF,
20421210,00000266,false,Rx,0,8,8C,05,00,00,02,02,01,00,
20421412,00000118,false,Rx,0,8,32,08,F0,20,00,00,01,00,
20425380,00000154,false,Rx,0,8,02,30,08,00,00,00,40,CF,
20431275,00000266,false,Rx,0,8,8C,09,00,00,04,04,03,00,
20431477,00000118,false,Rx,0,8,33,09,F0,20,00,00,01,00,
20435363,00000154,false,Rx,0,8,02,30,08,00,00,00,60,EF,
20441326,00000266,false,Rx,0,8,8C,04,00,00,02,02,02,00,
20441610,00000118,false,Rx,0,8,34,0A,F0,20,00,00,01,00,
20445418,00000154,false,Rx,0,8,02,30,08,00,00,00,80,0F,
20451392,00000266,false,Rx,0,8,8C,04,00,00,02,02,01,00,
20451595,00000118,false,Rx,0,8,35,0B,F0,20,00,00,01,00,
20455397,00000154,false,Rx,0,8,02,30,08,00,00,00,A0,2F,
20461886,00000266,false,Rx,0,8,8C,04,00,00,04,04,03,00,
20461977,00000118,false,Rx,0,8,36,0C,F0,20,00,00,01,00,
20465377,00000154,false,Rx,0,8,02,30,08,00,00,00,C0,4F,
20471357,00000266,false,Rx,0,8,8C,0B,00,00,01,01,01,00,
20471642,00000118,false,Rx,0,8,37,0D,F0,20,00,00,01,00,
20471761,00000126,false,Rx,0,3,00,08,00,00,00,00,00,00,
20471963,000001D6,false,Rx,0,5,D0,C8,05,08,00,00,00,00,
20472174,00000268,false,Rx,0,5,02,02,FF,01,FF,00,00,00,
20472376,00000396,false,Rx,0,8,F7,FF,FF,28,FF,FF,FF,FF,
20475346,00000154,false,Rx,0,8,02,30,08,00,00,00,E0,6F,
20481156,00000266,false,Rx,0,8,8C,0F,00,00,05,05,04,00,
20481441,00000118,false,Rx,0,8,38,0E,F0,20,00,00,01,00,
20485338,00000154,false,Rx,0,8,02,30,08,00,00,00,00,8F,
20491161,00000266,false,Rx,0,8,8C,05,00,00,02,02,01,00,
20491362,00000118,false,Rx,0,8,39,0F,F0,20,00,00,01,00,
20495336,00000154,false,Rx,0,8,02,30,08,00,00,00,20,AF,
20501136,00000266,false,Rx,0,8,8C,04,00,00,04,04,04,00,
20501429,00000118,false,Rx,0,8,2A,00,F0,20,00,00,01,00,
20505398,00000154,false,Rx,0,8,02,30,08,00,00,00,40,CF,
20511113,00000266,false,Rx,0,8,8C,08,00,00,01,01,00,00,
20511407,00000118,false,Rx,0,8,2B,01,F0,20,00,00,01,00,
20515349,00000154,false,Rx,0,8,02,30,08,00,00,00,60,EF,
20521160,00000266,false,Rx,0,8,8C,04,00,00,06,06,05,00,
20521362,00000118,false,Rx,0,8,2C,02,F0,20,00,00,01,00,
20525336,00000154,false,Rx,0,8,02,30,08,00,00,00,80,0F,
20531136,00000266,false,Rx,0,8,8C,1A,00,00,04,04,03,00,
20531430,00000118,false,Rx,0,8,2D,03,F0,20,00,00,01,00,
20535399,00000154,false,Rx,0,8,02,30,08,00,00,00,A0,2F,
20541153,00000266,false,Rx,0,8,8C,04,00,00,02,02,01,00,
20541356,00000118,false,Rx,0,8,2E,04,F0,20,00,00,01,00,
20545365,00000154,false,Rx,0,8,02,30,08,00,00,00,C0,4F,
20551187,00000266,false,Rx,0,8,8C,04,00,00,01,01,00,00,
20551389,00000118,false,Rx,0,8,2F,05,F0,20,00,00,01,00,
20555357,00000154,false,Rx,0,8,02,30,08,00,00,00,E0,6F,
20561162,00000266,false,Rx,0,8,8C,04,00,00,02,02,01,00,
20561365,00000118,false,Rx,0,8,30,06,F0,20,00,00,01,00,
20566561,00000154,false,Rx,0,8,02,30,08,00,00,00,00,8F,
20571203,00000266,false,Rx,0,8,8D,05,00,00,02,02,01,00,
20571405,00000118,false,Rx,0,8,31,07,F0,20,00,00,01,00,
20571524,00000126,false,Rx,0,3,00,08,00,00,00,00,00,00,
20571725,000001D6,false,Rx,0,5,D0,C8,05,08,00,00,00,00,
20571927,00000268,false,Rx,0,5,02,02,FF,01,FF,00,00,00,
20572221,00000396,false,Rx,0,8,F7,FF,FF,28,FF,FF,FF,FF,
20575353,00000154,false,Rx,0,8,02,30,08,00,00,00,20,AF,
20581166,00000266,false,Rx,0,8,8C,0B,00,00,03,03,02,00,
20581451,00000118,false,Rx,0,8,32,08,F0,20,00,00,01,00,
20585354,00000154,false,Rx,0,8,02,30,08,00,00,00,40,CF,
20591210,00000266,false,Rx,0,8,8C,04,00,00,05,05,04,00,
20591496,00000118,false,Rx,0,8,33,09,F0,20,00,00,01,00,
20595379,00000154,false,Rx,0,8,02,30,08,00,00,00,60,EF,
20601354,00000266,false,Rx,0,8,8D,05,00,00,01,01,01,00,
20601556,00000118,false,Rx,0,8,34,0A,F0,20,00,00,01,00,
20605362,00000154,false,Rx,0,8,02,30,08,00,00,00,80,0F,
20611346,00000266,false,Rx,0,8,8C,04,00,00,04,04,03,00,
20611632,00000118,false,Rx,0,8,35,0B,F0,20,00,00,01,00,
20615356,00000154,false,Rx,0,8,02,30,08,00,00,00,A0,2F,
20621357,00000266,false,Rx,0,8,8C,04,00,00,04,04,03,00,
20621643,00000118,false,Rx,0,8,36,0C,F0,20,00,00,01,00,
20625361,00000154,false,Rx,0,8,02,30,08,00,00,00,C0,4F,
20631341,00000266,false,Rx,0,8,8C,04,00,00,02,02,01,00,
20631626,00000118,false,Rx,0,8,37,0D,F0,20,00,00,01,00,
20635352,00000154,false,Rx,0,8,02,30,08,00,00,00,E0,6F,
20641167,00000266,false,Rx,0,8,8C,08,00,00,04,04,03,00,
20641369,00000118,false,Rx,0,8,38,0E,F0,20,00,00,01,00,
20645373,00000154,false,Rx,0,8,02,30,08,00,00,00,00,8F,
20651105,00000266,false,Rx,0,8,8D,08,00,00,02,02,01,00,
20651398,00000118,false,Rx,0,8,39,0F,F0,20,00,00,01,00,
20655365,00000154,false,Rx,0,8,02,30,08,00,00,00,20,AF,
20661089,00000266,false,Rx,0,8,8C,08,00,00,04,04,03,00,
20661383,00000118,false,Rx,0,8,2A,00,F0,20,00,00,01,00,
20665363,00000154,false,Rx,0,8,02,30,08,00,00,00,40,CF,
20671158,00000266,false,Rx,0,8,8C,04,00,00,02,02,01,00,
20671361,00000118,false,Rx,0,8,2B,01,F0,20,00,00,01,00,
20671563,00000126,false,Rx,0,3,00,08,00,00,00,00,00,00,
20671764,000001D6,false,Rx,0,5,D0,C8,05,08,00,00,00,00,
20671969,00000268,false,Rx,0,5,02,02,FF,01,FF,00,00,00,
20672179,00000396,false,Rx,0,8,F7,FF,FF,28,FF,FF,FF,FF,
20675309,00000154,false,Rx,0,8,02,30,08,00,00,00,60,EF,
20681108,00000266,false,Rx,0,8,8C,07,00,00,03,03,02,00,
20681402,00000118,false,Rx,0,8,2C,02,F0,20,00,00,01,00,
20685383,00000154,false,Rx,0,8,02,30,08,00,00,00,80,0F,
20691120,00000266,false,Rx,0,8,8C,13,00,00,01,01,01,00,
20691331,00000118,false,Rx,0,8,2D,03,F0,20,00,00,01,00,
20695382,00000154,false,Rx,0,8,02,30,08,00,00,00,A0,2F,
20701131,00000266,false,Rx,0,8,8C,07,00,00,02,02,01,00,
20701342,00000118,false,Rx,0,8,2E,04,F0,20,00,00,01,00,
20705310,00000154,false,Rx,0,8,02,30,08,00,00,00,C0,4F,
20711112,00000266,false,Rx,0,8,8C,04,00,00,05,05,04,00,
20711406,00000118,false,Rx,0,8,2F,05,F0,20,00,00,01,00,
20715373,00000154,false,Rx,0,8,02,30,08,00,00,00,E0,6F,
20723480,00000266,false,Rx,0,8,8C,04,00,00,03,03,02,00,
20723568,00000118,false,Rx,0,8,30,06,F0,20,00,00,01,00,
20725364,00000154,false,Rx,0,8,02,30,08,00,00,00,00,8F,
20731090,00000266,false,Rx,0,8,8C,0C,00,00,04,04,03,00,
20731383,00000118,false,Rx,0,8,31,07,F0,20,00,00,01,00,
20735354,00000154,false,Rx,0,8,02,30,08,00,00,00,20,AF,
20741166,00000266,false,Rx,0,8,8C,04,00,00,05,05,04,00,
20741450,00000118,false,Rx,0,8,32,08,F0,20,00,00,01,00,
20745341,00000154,false,Rx,0,8,02,30,08,00,00,00,40,CF,
20751277,00000266,false,Rx,0,8,8D,06,00,00,03,03,02,00,
20751479,00000118,false,Rx,0,8,33,09,F0,20,00,00,01,00,
20755363,00000154,false,Rx,0,8,02,30,08,00,00,00,60,EF,
20761347,00000266,false,Rx,0,8,8D,04,00,00,01,01,00,00,
20761631,00000118,false,Rx,0,8,34,0A,F0,20,00,00,01,00,
20765354,00000154,false,Rx,0,8,02,30,08,00,00,00,80,0F,
20771333,00000266,false,Rx,0,8,8C,04,00,00,03,03,02,00,
20771619,00000118,false,Rx,0,8,35,0B,F0,20,00,00,01,00,
20771738,00000126,false,Rx,0,3,00,08,00,00,00,00,00,00,
20771939,000001D6,false,Rx,0,5,D0,C8,05,08,00,00,00,00,
20772232,00000268,false,Rx,0,5,03,03,FF,01,FF,00,00,00,
20772434,00000396,false,Rx,0,8,F7,FF,FF,28,FF,FF,FF,FF,
20776339,00000154,false,Rx,0,8,02,30,08,00,00,00,A0,2F,
20781310,00000266,false,Rx,0,8,8C,04,00,00,02,02,01,00,
20781596,00000118,false,Rx,0,8,36,0C,F0,20,00,00,01,00,
20785330,00000154,false,Rx,0,8,02,30,08,00,00,00,C0,4F,
20791348,00000266,false,Rx,0,8,8C,0E,00,00,01,01,00,00,
20791633,00000118,false,Rx,0,8,37,0D,F0,20,00,00,01,00,
20795358,00000154,false,Rx,0,8,02,30,08,00,00,00,E0,6F,
20801079,00000266,false,Rx,0,8,8C,0C,00,00,04,04,03,00,
20801373,00000118,false,Rx,0,8,38,0E,F0,20,00,00,01,00,
20805347,00000154,false,Rx,0,8,02,30,08,00,00,00,00,8F,
20811156,00000266,false,Rx,0,8,8C,04,00,00,06,06,05,00,
20811359,00000118,false,Rx,0,8,39,0F,F0,20,00,00,01,00,
20815333,00000154,false,Rx,0,8,02,30,08,00,00,00,20,AF,
20821134,00000266,false,Rx,0,8,8C,05,00,00,02,02,01,00,
20821344,00000118,false,Rx,0,8,2A,00,F0,20,00,00,01,00,
20825395,00000154,false,Rx,0,8,02,30,08,00,00,00,40,CF,
20831079,00000266,false,Rx,0,8,8C,06,00,00,02,02,01,00,
20831373,00000118,false,Rx,0,8,2B,01,F0,20,00,00,01,00,
20835347,00000154,false,Rx,0,8,02,30,08,00,00,00,60,EF,
20841157,00000266,false,Rx,0,8,8C,1A,00,00,07,07,07,00,
20841360,00000118,false,Rx,0,8,2C,02,F0,20,00,00,01,00,
20845333,00000154,false,Rx,0,8,02,30,08,00,00,00,80,0F,
20851093,00000266,false,Rx,0,8,8C,04,00,00,01,01,00,00,
20851387,00000118,false,Rx,0,8,2D,03,F0,20,00,00,01,00,
20855358,00000154,false,Rx,0,8,02,30,08,00,00,00,A0,2F,
20861168,00000266,false,Rx,0,8,8C,04,00,00,05,05,04,00,
20861371,00000118,false,Rx,0,8,2E,04,F0,20,00,00,01,00,
20865354,00000154,false,Rx,0,8,02,30,08,00,00,00,C0,4F,
20871078,00000266,false,Rx,0,8,8C,04,00,00,02,02,01,00,
20871372,00000118,false,Rx,0,8,2F,05,F0,20,00,00,01,00,
20871491,00000126,false,Rx,0,3,00,08,00,00,00,00,00,00,
20871693,000001D6,false,Rx,0,5,D0,C8,05,08,00,00,00,00,
20871895,00000268,false,Rx,0,5,02,02,FF,01,FF,00,00,00,
20872099,00000396,false,Rx,0,8,F7,FF,FF,28,FF,FF,FF,FF,
20875319,00000154,false,Rx,0,8,02,30,08,00,00,00,E0,6F,
20881115,00000266,false,Rx,0,8,8D,0D,00,00,03,03,02,00,
20881326,00000118,false,Rx,0,8,30,06,F0,20,00,00,01,00,
20885310,00000154,false,Rx,0,8,02,30,08,00,00,00,00,8F,
20891124,00000266,false,Rx,0,8,8C,08,00,00,04,04,03,00,
20891334,00000118,false,Rx,0,8,31,07,F0,20,00,00,01,00,
20895302,00000154,false,Rx,0,8,02,30,08,00,00,00,20,AF,
20901199,00000266,false,Rx,0,8,8D,0B,00,00,01,01,00,00,
20901401,00000118,false,Rx,0,8,32,08,F0,20,00,00,01,00,
20905369,00000154,false,Rx,0,8,02,30,08,00,00,00,40,CF,
20911272,00000266,false,Rx,0,8,8C,04,00,00,07,07,06,00,
20911474,00000118,false,Rx,0,8,33,09,F0,20,00,00,01,00,
20915360,00000154,false,Rx,0,8,02,30,08,00,00,00,60,EF,
20921341,00000266,false,Rx,0,8,8C,0C,00,00,06,06,05,00,
20921627,00000118,false,Rx,0,8,34,0A,F0,20,00,00,01,00,
20925352,00000154,false,Rx,0,8,02,30,08,00,00,00,80,0F,
20932598,00000266,false,Rx,0,8,8C,04,00,00,03,03,03,00,
20932686,00000118,false,Rx,0,8,35,0B,F0,20,00,00,01,00,
20935319,00000154,false,Rx,0,8,02,30,08,00,00,00,A0,2F,
20941377,00000266,false,Rx,0,8,8C,09,00,00,03,03,02,00,
20941579,00000118,false,Rx,0,8,36,0C,F0,20,00,00,01,00,
20945300,00000154,false,Rx,0,8,02,30,08,00,00,00,C0,4F,
20951130,00000266,false,Rx,0,8,8C,05,00,00,03,03,02,00,
20951425,00000118,false,Rx,0,8,37,0D,F0,20,00,00,01,00,
20955351,00000154,false,Rx,0,8,02,30,08,00,00,00,E0,6F,
20961073,00000266,false,Rx,0,8,8C,04,00,00,02,02,01,00,
20961366,00000118,false,Rx,0,8,38,0E,F0,20,00,00,01,00,
20965341,00000154,false,Rx,0,8,02,30,08,00,00,00,00,8F,
20971142,00000266,false,Rx,0,8,8C,05,00,00,03,03,02,00,
20971352,00000118,false,Rx,0,8,39,0F,F0,20,00,00,01,00,
20971637,00000126,false,Rx,0,3,00,08,00,00,00,00,00,00,
20971839,000001D6,false,Rx,0,5,D0,C8,05,08,00,00,00,00,
20972044,00000268,false,Rx,0,5,03,03,FF,01,FF,00,00,00,
20972254,00000396,false,Rx,0,8,F7,FF,FF,28,FF,FF,FF,FF,
20975383,00000154,false,Rx,0,8,02,30,08,00,00,00,20,AF,
20981104,00000266,false,Rx,0,8,8C,04,00,00,02,02,01,00,
20981397,00000118,false,Rx,0,8,2A,00,F0,20,00,00,01,00,
20985467,00000154,false,Rx,0,8,02,30,08,00,00,00,40,CF,
20991121,00000266,false,Rx,0,8,8C,04,00,00,03,03,02,00,
20991332,00000118,false,Rx,0,8,2B,01,F0,20,00,00,01,00,
20995299,00000154,false,Rx,0,8,02,30,08,00,00,00,60,EF,
21001105,00000266,false,Rx,0,8,8C,04,00,00,03,03,02,00,
21001316,00000118,false,Rx,0,8,2C,02,F0,20,00,00,01,00,
21005283,00000154,false,Rx,0,8,02,30,08,00,00,00,80,0F,
21011094,00000266,false,Rx,0,8,8C,0C,00,00,03,03,02,00,
21011388,00000118,false,Rx,0,8,2D,03,F0,20,00,00,01,00,
21015359,00000154,false,Rx,0,8,02,30,08,00,00,00,A0,2F,
21021084,00000266,false,Rx,0,8,8C,0A,00,00,03,03,02,00,
21021376,00000118,false,Rx,0,8,2E,04,F0,20,00,00,01,00,
21025351,00000154,false,Rx,0,8,02,30,08,00,00,00,C0,4F,
21031073,00000266,false,Rx,0,8,8C,09,00,00,03,03,02,00,
21031365,00000118,false,Rx,0,8,2F,05,F0,20,00,00,01,00,
21035341,00000154,false,Rx,0,8,02,30,08,00,00,00,E0,6F,
21041093,00000266,false,Rx,0,8,8C,05,00,00,01,01,00,00,
21041303,00000118,false,Rx,0,8,30,06,F0,20,00,00,01,00,
21045274,00000154,false,Rx,0,8,02,30,08,00,00,00,00,8F,
21051079,00000266,false,Rx,0,8,8D,04,00,00,03,03,02,00,
21051373,00000118,false,Rx,0,8,31,07,F0,20,00,00,01,00,
21055288,00000154,false,Rx,0,8,02,30,08,00,00,00,20,AF,
21061196,00000266,false,Rx,0,8,8D,06,00,00,01,01,00,00,
21061398,00000118,false,Rx,0,8,32,08,F0,20,00,00,01,00,
21065293,00000154,false,Rx,0,8,02,30,08,00,00,00,40,CF,
21071275,00000266,false,Rx,0,8,8C,0B,00,00,02,02,01,00,
21071477,00000118,false,Rx,0,8,33,09,F0,20,00,00,01,00,
21071679,00000126,false,Rx,0,3,00,08,00,00,00,00,00,00,
21071798,000001D6,false,Rx,0,5,D0,C8,05,08,00,00,00,00,
21072085,00000268,false,Rx,0,5,02,02,FF,01,FF,00,00,00,
21072295,00000396,false,Rx,0,8,F7,FF,FF,28,FF,FF,FF,FF,
21075346,00000154,false,Rx,0,8,02,30,08,00,00,00,60,EF,
21081321,00000266,false,Rx,0,8,8C,04,00,00,02,02,01,00,
21081607,00000656,false,Rx,0,8,0D,00,00,00,F2,C0,74,C6,
21081809,00000118,false,Rx,0,8,34,0A,F0,20,00,00,01,00,
21082015,00000376,false,Rx,0,8,3A,39,28,50,39,95,7D,03,
21082309,00000757,false,Rx,0,8,31,00,00,00,00,00,00,00,
21082512,00000556,false,Rx,0,7,39,39,00,3A,00,28,00,00,
21082713,00000757,false,Rx,0,8,42,00,01,01,04,05,05,76,
21082915,00000557,false,Rx,0,3,43,48,05,00,00,00,00,00,
21083119,00000757,false,Rx,0,8,43,22,3C,25,4E,53,50,75,
21083412,00000356,false,Rx,0,8,00,00,00,00,00,40,02,00,
21083615,00000757,false,Rx,0,8,44,59,A9,51,B0,69,71,8B,
21083817,00000357,false,Rx,0,8,04,80,07,08,00,21,00,00,
21084020,00000757,false,Rx,0,8,46,39,39,28,39,39,39,39,
21084327,0000035A,false,Rx,0,8,00,00,80,06,00,00,00,00,
21084529,00000757,false,Rx,0,8,48,28,28,00,00,00,00,00,
21084814,0000035B,false,Rx,0,8,00,00,00,00,40,02,04,00,
21085018,00000757,false,Rx,0,8,2B,00,00,00,00,00,00,00,
21085227,00000279,false,Rx,0,2,04,00,00,00,00,00,00,00,
21085429,00000154,false,Rx,0,8,02,30,08,00,00,00,80,0F,
21085547,00000336,false,Rx,0,3,FF,01,FF,00,00,00,00,00,
21085749,000003B6,false,Rx,0,4,FF,FF,FF,FF,00,00,00,00,
21086033,000003D6,false,Rx,0,8,FF,FF,FF,FF,FF,FF,11,FF,
21093524,00000266,false,Rx,0,8,8C,04,00,00,02,02,01,00,
21093612,00000118,false,Rx,0,8,35,0B,F0,20,00,00,01,00,
21095327,00000154,false,Rx,0,8,02,30,08,00,00,00,A0,2F,
21101299,00000266,false,Rx,0,8,8C,08,00,00,01,01,00,00,
21101584,00000118,false,Rx,0,8,36,0C,F0,20,00,00,01,00,
21105303,00000154,false,Rx,0,8,02,30,08,00,00,00,C0,4F,
21111108,00000266,false,Rx,0,8,8C,06,00,00,07,07,06,00,
21111319,00000118,false,Rx,0,8,37,0D,F0,20,00,00,01,00,
21115288,00000154,false,Rx,0,8,02,30,08,00,00,00,E0,6F,
21121099,00000266,false,Rx,0,8,8C,04,00,00,04,04,03,00,
21121309,00000118,false,Rx,0,8,38,0E,F0,20,00,00,01,00,
21125277,00000154,false,Rx,0,8,02,30,08,00,00,00,00,8F,
21131084,00000266,false,Rx,0,8,8C,04,00,00,03,03,02,00,
21131295,00000118,false,Rx,0,8,39,0F,F0,20,00,00,01,00,
21135352,00000154,false,Rx,0,8,02,30,08,00,00,00,20,AF,
21141072,00000266,false,Rx,0,8,8C,1A,00,00,03,03,02,00,
21141282,00000118,false,Rx,0,8,2A,00,F0,20,00,00,01,00,
21145667,00000304,false,Rx,0,8,00,22,01,00,00,00,D0,04,
21145755,00000316,false,Rx,0,8,0D,00,00,00,ED,EE,3C,55,
21145843,00000154,false,Rx,0,8,02,30,08,00,00,00,40,CF,
21151064,00000266,false,Rx,0,8,8C,04,00,00,02,02,01,00,
21151358,00000118,false,Rx,0,8,2B,01,F0,20,00,00,01,00,
21155327,00000154,false,Rx,0,8,02,30,08,00,00,00,60,EF,
21161090,00000266,false,Rx,0,8,8D,05,00,00,05,05,04,00,
21161299,00000118,false,Rx,0,8,2C,02,F0,20,00,00,01,00,
21165271,00000154,false,Rx,0,8,02,30,08,00,00,00,80,0F,
21171076,00000266,false,Rx,0,8,8C,10,00,00,02,02,01,00,
21171286,00000118,false,Rx,0,8,2D,03,F0,20,00,00,01,00,
21171489,00000126,false,Rx,0,3,00,08,00,00,00,00,00,00,
21171691,000001D6,false,Rx,0,5,D0,C8,05,08,00,00,00,00,
21171809,00000268,false,Rx,0,5,02,02,FF,01,FF,00,00,00,
21172099,00000396,false,Rx,0,8,F7,FF,FF,28,FF,FF,FF,FF,
21175318,00000154,false,Rx,0,8,02,30,08,00,00,00,A0,2F,
21181037,00000266,false,Rx,0,8,8C,06,00,00,04,04,03,00,
21181331,00000118,false,Rx,0,8,2E,04,F0,20,00,00,01,00,
21185313,00000154,false,Rx,0,8,02,30,08,00,00,00,C0,4F,
21191046,00000266,false,Rx,0,8,8C,04,00,00,04,04,03,00,
21191339,00000118,false,Rx,0,8,2F,05,F0,20,00,00,01,00,
21195307,00000154,false,Rx,0,8,02,30,08,00,00,00,E0,6F,
21201113,00000266,false,Rx,0,8,8C,04,00,00,02,02,01,00,
21201324,00000118,false,Rx,0,8,30,06,F0,20,00,00,01,00,
21205291,00000154,false,Rx,0,8,02,30,08,00,00,00,00,8F,
21211118,00000266,false,Rx,0,8,8D,04,00,00,01,01,00,00,
21211328,00000118,false,Rx,0,8,31,07,F0,20,00,00,01,00,
21215297,00000154,false,Rx,0,8,02,30,08,00,00,00,20,AF,
21221192,00000266,false,Rx,0,8,8C,05,00,00,02,02,01,00,
21221394,00000118,false,Rx,0,8,32,08,F0,20,00,00,01,00,
21225277,00000154,false,Rx,0,8,02,30,08,00,00,00,40,CF,
21231258,00000266,false,Rx,0,8,8C,05,00,00,01,01,00,00,
21231460,00000118,false,Rx,0,8,33,09,F0,20,00,00,01,00,
21235268,00000154,false,Rx,0,8,02,30,08,00,00,00,60,EF,
21241330,00000266,false,Rx,0,8,8C,08,00,00,01,01,00,00,
21241615,00000118,false,Rx,0,8,34,0A,F0,20,00,00,01,00,
21245258,00000154,false,Rx,0,8,02,30,08,00,00,00,80,0F,
21251280,00000266,false,Rx,0,8,8C,04,00,00,05,05,05,00,
21251565,00000118,false,Rx,0,8,35,0B,F0,20,00,00,01,00,
21255283,00000154,false,Rx,0,8,02,30,08,00,00,00,A0,2F,
21261307,00000266,false,Rx,0,8,8D,05,00,00,02,02,01,00,
21261508,00000118,false,Rx,0,8,36,0C,F0,20,00,00,01,00,
21265327,00000154,false,Rx,0,8,02,30,08,00,00,00,C0,4F,
21271046,00000266,false,Rx,0,8,8C,16,00,00,02,02,01,00,
21271339,00000118,false,Rx,0,8,37,0D,F0,20,00,00,01,00,
21271457,00000126,false,Rx,0,3,00,08,00,00,00,00,00,00,
21271658,000001D6,false,Rx,0,5,D0,C8,05,08,00,00,00,00,
21271861,00000268,false,Rx,0,5,02,02,FF,01,FF,00,00,00,
21272155,00000396,false,Rx,0,8,F7,FF,FF,28,FF,FF,FF,FF,
21275284,00000154,false,Rx,0,8,02,30,08,00,00,00,E0,6F,
21281096,00000266,false,Rx,0,8,8D,06,00,00,03,03,02,00,
21281307,00000118,false,Rx,0,8,38,0E,F0,20,00,00,01,00,
21285289,00000154,false,Rx,0,8,02,30,08,00,00,00,00,8F,
21291055,00000266,false,Rx,0,8,8C,04,00,00,02,02,01,00,
21291264,00000118,false,Rx,0,8,39,0F,F0,20,00,00,01,00,
21295316,00000154,false,Rx,0,8,02,30,08,00,00,00,20,AF,
21302959,00000266,false,Rx,0,8,8C,04,00,00,07,07,07,00,
21303047,00000118,false,Rx,0,8,2A,00,F0,20,00,00,01,00,
21305269,00000154,false,Rx,0,8,02,30,08,00,00,00,40,CF,
21311073,00000266,false,Rx,0,8,8C,06,00,00,01,01,00,00,
21311365,00000118,false,Rx,0,8,2B,01,F0,20,00,00,01,00,
21315258,00000154,false,Rx,0,8,02,30,08,00,00,00,60,EF,
21321060,00000266,false,Rx,0,8,8C,05,00,00,02,02,01,00,
21321270,00000118,false,Rx,0,8,2C,02,F0,20,00,00,01,00,
21325320,00000154,false,Rx,0,8,02,30,08,00,00,00,80,0F,
21331038,00000266,false,Rx,0,8,8D,04,00,00,01,01,00,00,
21331331,00000118,false,Rx,0,8,2D,03,F0,20,00,00,01,00,
21335300,00000154,false,Rx,0,8,02,30,08,00,00,00,A0,2F,
21341105,00000266,false,Rx,0,8,8C,04,00,00,01,01,00,00,
21341315,00000118,false,Rx,0,8,2E,04,F0,20,00,00,01,00,
21345281,00000154,false,Rx,0,8,02,30,08,00,00,00,C0,4F,
21351089,00000266,false,Rx,0,8,8C,04,00,00,03,03,02,00,
21351300,00000118,false,Rx,0,8,2F,05,F0,20,00,00,01,00,
21355302,00000154,false,Rx,0,8,02,30,08,00,00,00,E0,6F,
21361046,00000266,false,Rx,0,8,8C,04,00,00,03,03,03,00,
21361263,00000118,false,Rx,0,8,30,06,F0,20,00,00,01,00,
21365321,00000154,false,Rx,0,8,02,30,08,00,00,00,00,8F,
21371120,00000266,false,Rx,0,8,8D,04,00,00,01,01,00,00,
21371331,00000118,false,Rx,0,8,31,07,F0,20,00,00,01,00,
21371532,00000126,false,Rx,0,3,00,08,00,00,00,00,00,00,
21371734,000001D6,false,Rx,0,5,D0,C8,05,08,00,00,00,00,
21371935,00000268,false,Rx,0,5,01,01,FF,01,FF,00,00,00,
21372220,00000396,false,Rx,0,8,F7,FF,FF,28,FF,FF,FF,FF,
21375280,00000154,false,Rx,0,8,02,30,08,00,00,00,20,AF,
21381174,00000266,false,Rx,0,8,8C,04,00,00,02,02,02,00,
21381459,00000118,false,Rx,0,8,32,08,F0,20,00,00,01,00,
21385280,00000154,false,Rx,0,8,02,30,08,00,00,00,40,CF,
21391277,00000266,false,Rx,0,8,8C,08,00,00,02,02,01,00,
21391479,00000118,false,Rx,0,8,33,09,F0,20,00,00,01,00,
21395282,00000154,false,Rx,0,8,02,30,08,00,00,00,60,EF,
21401269,00000266,false,Rx,0,8,8C,04,00,00,02,02,01,00,
21401555,00000118,false,Rx,0,8,34,0A,F0,20,00,00,01,00,
21407567,00000154,false,Rx,0,8,02,30,08,00,00,00,80,0F,
21411287,00000266,false,Rx,0,8,8C,04,00,00,05,05,04,00,
21411490,00000118,false,Rx,0,8,35,0B,F0,20,00,00,01,00,
21415290,00000154,false,Rx,0,8,02,30,08,00,00,00,A0,2F,
21421272,00000266,false,Rx,0,8,8C,07,00,00,06,06,05,00,
21421557,00000118,false,Rx,0,8,36,0C,F0,20,00,00,01,00,
21425275,00000154,false,Rx,0,8,02,30,08,00,00,00,C0,4F,
21431080,00000266,false,Rx,0,8,8C,08,00,00,02,02,01,00,
21431291,00000118,false,Rx,0,8,37,0D,F0,20,00,00,01,00,
21435260,00000154,false,Rx,0,8,02,30,08,00,00,00,E0,6F,
21441062,00000266,false,Rx,0,8,8C,04,00,00,04,04,03,00,
21441271,00000118,false,Rx,0,8,38,0E,F0,20,00,00,01,00,
21445322,00000154,false,Rx,0,8,02,30,08,00,00,00,00,8F,
21451041,00000266,false,Rx,0,8,8C,05,00,00,03,03,02,00,
21451334,00000118,false,Rx,0,8,39,0F,F0,20,00,00,01,00,
21455300,00000154,false,Rx,0,8,02,30,08,00,00,00,20,AF,
21461104,00000266,false,Rx,0,8,8C,04,00,00,06,06,05,00,
21461314,00000118,false,Rx,0,8,2A,00,F0,20,00,00,01,00,
21465253,00000154,false,Rx,0,8,02,30,08,00,00,00,40,CF,
21471084,00000266,false,Rx,0,8,8C,09,00,00,03,03,02,00,
21471294,00000118,false,Rx,0,8,2B,01,F0,20,00,00,01,00,
21471413,00000126,false,Rx,0,3,00,08,00,00,00,00,00,00,
21471615,000001D6,false,Rx,0,5,D0,C8,05,08,00,00,00,00,
21471817,00000268,false,Rx,0,5,03,03,FF,01,FF,00,00,00,
21472103,00000396,false,Rx,0,8,F7,FF,FF,28,FF,FF,FF,FF,
21475244,00000154,false,Rx,0,8,02,30,08,00,00,00,60,EF,
21481045,00000266,false,Rx,0,8,8C,04,00,00,02,02,02,00,
21481255,00000118,false,Rx,0,8,2C,02,F0,20,00,00,01,00,
21485234,00000154,false,Rx,0,8,02,30,08,00,00,00,80,0F,
21491047,00000266,false,Rx,0,8,8C,05,00,00,05,05,04,00,
21491340,00000118,false,Rx,0,8,2D,03,F0,20,00,00,01,00,
21495307,00000154,false,Rx,0,8,02,30,08,00,00,00,A0,2F,
21501030,00000266,false,Rx,0,8,8C,04,00,00,01,01,00,00,
21501323,00000118,false,Rx,0,8,2E,04,F0,20,00,00,01,00,
21505290,00000154,false,Rx,0,8,02,30,08,00,00,00,C0,4F,
21512059,00000266,false,Rx,0,8,8C,08,00,00,03,03,02,00,
21512154,00000118,false,Rx,0,8,2F,05,F0,20,00,00,01,00,
21515283,00000154,false,Rx,0,8,02,30,08,00,00,00,E0,6F,
21521096,00000266,false,Rx,0,8,8C,04,00,00,07,07,06,00,
21521306,00000118,false,Rx,0,8,30,06,F0,20,00,00,01,00,
21525275,00000154,false,Rx,0,8,02,30,08,00,00,00,00,8F,
21531079,00000266,false,Rx,0,8,8C,04,00,00,02,02,01,00,
21531373,00000118,false,Rx,0,8,31,07,F0,20,00,00,01,00,
21535263,00000154,false,Rx,0,8,02,30,08,00,00,00,20,AF,
21541184,00000266,false,Rx,0,8,8D,0B,00,00,02,02,01,00,
21541470,00000118,false,Rx,0,8,32,08,F0,20,00,00,01,00,
21545275,00000154,false,Rx,0,8,02,30,08,00,00,00,40,CF,
21551252,00000266,false,Rx,0,8,8D,0B,00,00,02,02,02,00,
21551537,00000118,false,Rx,0,8,33,09,F0,20,00,00,01,00,
21555263,00000154,false,Rx,0,8,02,30,08,00,00,00,60,EF,
21561239,00000266,false,Rx,0,8,8C,05,00,00,02,02,02,00,
21561524,00000118,false,Rx,0,8,34,0A,F0,20,00,00,01,00,
21565227,00000154,false,Rx,0,8,02,30,08,00,00,00,80,0F,
21571238,00000266,false,Rx,0,8,8C,0B,00,00,01,01,00,00,
21571523,00000118,false,Rx,0,8,35,0B,F0,20,00,00,01,00,
21571643,00000126,false,Rx,0,3,00,08,00,00,00,00,00,00,
21571845,000001D6,false,Rx,0,5,D0,C8,05,08,00,00,00,00,
21572049,00000268,false,Rx,0,5,02,02,FF,01,FF,00,00,00,
21572259,00000396,false,Rx,0,8,F7,FF,FF,28,FF,FF,FF,FF,
21575224,00000154,false,Rx,0,8,02,30,08,00,00,00,A0,2F,
21581029,00000266,false,Rx,0,8,8C,08,00,00,02,02,01,00,
21581322,00000118,false,Rx,0,8,36,0C,F0,20,00,00,01,00,
21585217,00000154,false,Rx,0,8,02,30,08,00,00,00,C0,4F,
21591064,00000266,false,Rx,0,8,8C,04,00,00,03,03,02,00,
21591275,00000118,false,Rx,0,8,37,0D,F0,20,00,00,01,00,
21595244,00000154,false,Rx,0,8,02,30,08,00,00,00,E0,6F,
21601044,00000266,false,Rx,0,8,8C,04,00,00,01,01,00,00,
21601255,00000118,false,Rx,0,8,38,0E,F0,20,00,00,01,00,
21605306,00000154,false,Rx,0,8,02,30,08,00,00,00,00,8F,
21611025,00000266,false,Rx,0,8,8C,0E,00,00,02,02,01,00,
21611235,00000118,false,Rx,0,8,39,0F,F0,20,00,00,01,00,
21616746,00000154,false,Rx,0,8,02,30,08,00,00,00,20,AF,
21621048,00000266,false,Rx,0,8,8C,14,00,00,02,02,01,00,
21621258,00000118,false,Rx,0,8,2A,00,F0,20,00,00,01,00,
21625227,00000154,false,Rx,0,8,02,30,08,00,00,00,40,CF,
21631027,00000266,false,Rx,0,8,8C,17,00,00,01,01,00,00,
21631237,00000118,false,Rx,0,8,2B,01,F0,20,00,00,01,00,
21635287,00000154,false,Rx,0,8,02,30,08,00,00,00,60,EF,
21641015,00000266,false,Rx,0,8,8C,04,00,00,02,02,01,00,
21641307,00000118,false,Rx,0,8,2C,02,F0,20,00,00,01,00,
21645279,00000154,false,Rx,0,8,02,30,08,00,00,00,80,0F,
21651004,00000266,false,Rx,0,8,8C,07,00,00,02,02,01,00,
21651297,00000118,false,Rx,0,8,2D,03,F0,20,00,00,01,00,
21655270,00000154,false,Rx,0,8,02,30,08,00,00,00,A0,2F,
21660993,00000266,false,Rx,0,8,8C,0F,00,00,04,04,03,00,
21661286,00000118,false,Rx,0,8,2E,04,F0,20,00,00,01,00,
21665275,00000154,false,Rx,0,8,02,30,08,00,00,00,C0,4F,
21671015,00000266,false,Rx,0,8,8C,09,00,00,03,03,02,00,
21671308,00000118,false,Rx,0,8,2F,05,F0,20,00,00,01,00,
21671427,00000126,false,Rx,0,3,00,08,00,00,00,00,00,00,
21671629,000001D6,false,Rx,0,5,D0,C8,05,08,00,00,00,00,
21671830,00000268,false,Rx,0,5,03,03,FF,01,FF,00,00,00,
21672116,00000396,false,Rx,0,8,F7,FF,FF,28,FF,FF,FF,FF,
21675258,00000154,false,Rx,0,8,02,30,08,00,00,00,E0,6F,
21681058,00000266,false,Rx,0,8,8C,0E,00,00,03,03,02,00,
21681268,00000118,false,Rx,0,8,30,06,F0,20,00,00,01,00,
21685247,00000154,false,Rx,0,8,02,30,08,00,00,00,00,8F,
21691151,00000266,false,Rx,0,8,8C,04,00,00,03,03,02,00,
21691354,00000118,false,Rx,0,8,31,07,F0,20,00,00,01,00,
21695238,00000154,false,Rx,0,8,02,30,08,00,00,00,20,AF,
21701212,00000266,false,Rx,0,8,8C,05,00,00,01,01,01,00,
21701414,00000118,false,Rx,0,8,32,08,F0,20,00,00,01,00,
21705217,00000154,false,Rx,0,8,02,30,08,00,00,00,40,CF,
21711278,00000266,false,Rx,0,8,8C,08,00,00,02,02,01,00,
21711480,00000118,false,Rx,0,8,33,09,F0,20,00,00,01,00,
21715282,00000154,false,Rx,0,8,02,30,08,00,00,00,60,EF,
21721252,00000266,false,Rx,0,8,8C,04,00,00,02,02,01,00,
21721555,00000118,false,Rx,0,8,34,0A,F0,20,00,00,01,00,
21725282,00000154,false,Rx,0,8,02,30,08,00,00,00,80,0F,
21731263,00000266,false,Rx,0,8,8C,06,00,00,06,06,05,00,
21731464,00000118,false,Rx,0,8,35,0B,F0,20,00,00,01,00,
21735272,00000154,false,Rx,0,8,02,30,08,00,00,00,A0,2F,
21740995,00000266,false,Rx,0,8,8C,04,00,00,06,06,05,00,
21741289,00000118,false,Rx,0,8,36,0C,F0,20,00,00,01,00,
21745263,00000154,false,Rx,0,8,02,30,08,00,00,00,C0,4F,
21751064,00000266,false,Rx,0,8,8C,08,00,00,02,02,01,00,
21751274,00000118,false,Rx,0,8,37,0D,F0,20,00,00,01,00,
21755244,00000154,false,Rx,0,8,02,30,08,00,00,00,E0,6F,
21761047,00000266,false,Rx,0,8,8D,05,00,00,03,03,02,00,
21761257,00000118,false,Rx,0,8,38,0E,F0,20,00,00,01,00,
21765307,00000154,false,Rx,0,8,02,30,08,00,00,00,00,8F,
21770971,00000266,false,Rx,0,8,8C,05,00,00,03,03,02,00,
21773064,00000118,false,Rx,0,8,39,0F,F0,20,00,00,01,00,
21773161,00000126,false,Rx,0,3,00,08,00,00,00,00,00,00,
21773247,000001D6,false,Rx,0,5,D0,C8,05,08,00,00,00,00,
21773334,00000268,false,Rx,0,5,03,03,FF,01,FF,00,00,00,
21773421,00000396,false,Rx,0,8,F7,FF,FF,28,FF,FF,FF,FF,
21775216,00000154,false,Rx,0,8,02,30,08,00,00,00,20,AF,
21781021,00000266,false,Rx,0,8,8C,04,00,00,01,01,00,00,
21781232,00000118,false,Rx,0,8,2A,00,F0,20,00,00,01,00,
21785208,00000154,false,Rx,0,8,02,30,08,00,00,00,40,CF,
21791055,00000266,false,Rx,0,8,8C,04,00,00,01,01,00,00,
21791264,00000118,false,Rx,0,8,2B,01,F0,20,00,00,01,00,
21795232,00000154,false,Rx,0,8,02,30,08,00,00,00,60,EF,
21801033,00000266,false,Rx,0,8,8C,09,00,00,01,01,00,00,
21801243,00000118,false,Rx,0,8,2C,02,F0,20,00,00,01,00,
21805211,00000154,false,Rx,0,8,02,30,08,00,00,00,80,0F,
21811019,00000266,false,Rx,0,8,8C,09,00,00,01,01,00,00,
21811230,00000118,false,Rx,0,8,2D,03,F0,20,00,00,01,00,
21815198,00000154,false,Rx,0,8,02,30,08,00,00,00,A0,2F,
21821006,00000266,false,Rx,0,8,8D,04,00,00,01,01,00,00,
21821300,00000118,false,Rx,0,8,2E,04,F0,20,00,00,01,00,
21825794,00000154,false,Rx,0,8,02,30,08,00,00,00,C0,4F,
21831018,00000266,false,Rx,0,8,8C,04,00,00,02,02,01,00,
21831229,00000118,false,Rx,0,8,2F,05,F0,20,00,00,01,00,
21835196,00000154,false,Rx,0,8,02,30,08,00,00,00,E0,6F,
21841090,00000266,false,Rx,0,8,8C,07,00,00,03,03,03,00,
21841300,00000118,false,Rx,0,8,30,06,F0,20,00,00,01,00,
21845188,00000154,false,Rx,0,8,02,30,08,00,00,00,00,8F,
21851167,00000266,false,Rx,0,8,8C,04,00,00,04,04,03,00,
21851370,00000118,false,Rx,0,8,31,07,F0,20,00,00,01,00,
21855257,00000154,false,Rx,0,8,02,30,08,00,00,00,20,AF,
21861224,00000266,false,Rx,0,8,8C,05,00,00,03,03,02,00,
21861426,00000118,false,Rx,0,8,32,08,F0,20,00,00,01,00,
21865239,00000154,false,Rx,0,8,02,30,08,00,00,00,40,CF,
21871217,00000266,false,Rx,0,8,8C,09,00,00,03,03,02,00,
21871503,00000118,false,Rx,0,8,33,09,F0,20,00,00,01,00,
21871622,00000126,false,Rx,0,3,00,08,00,00,00,00,00,00,
21871824,000001D6,false,Rx,0,5,D0,C8,05,08,00,00,00,00,
21872027,00000268,false,Rx,0,5,03,03,FF,01,FF,00,00,00,
21872321,00000396,false,Rx,0,8,F7,FF,FF,28,FF,FF,FF,FF,
21875222,00000154,false,Rx,0,8,02,30,08,00,00,00,60,EF,
21881217,00000266,false,Rx,0,8,8C,0A,00,00,03,03,02,00,
21881502,00000118,false,Rx,0,8,34,0A,F0,20,00,00,01,00,
21885231,00000154,false,Rx,0,8,02,30,08,00,00,00,80,0F,
21891210,00000266,false,Rx,0,8,8C,0B,00,00,01,01,00,00,
21891496,00000118,false,Rx,0,8,35,0B,F0,20,00,00,01,00,
21895213,00000154,false,Rx,0,8,02,30,08,00,00,00,A0,2F,
21901018,00000266,false,Rx,0,8,8C,0A,00,00,05,05,04,00,
21901228,00000118,false,Rx,0,8,36,0C,F0,20,00,00,01,00,
21905188,00000154,false,Rx,0,8,02,30,08,00,00,00,C0,4F,
21910991,00000266,false,Rx,0,8,8C,07,00,00,02,02,01,00,
21911201,00000118,false,Rx,0,8,37,0D,F0,20,00,00,01,00,
21915258,00000154,false,Rx,0,8,02,30,08,00,00,00,E0,6F,
21920973,00000266,false,Rx,0,8,8C,04,00,00,02,02,01,00,
21921266,00000118,false,Rx,0,8,38,0E,F0,20,00,00,01,00,
21925234,00000154,false,Rx,0,8,02,30,08,00,00,00,00,8F,
21931014,00000266,false,Rx,0,8,8C,09,00,00,01,01,00,00,
21931225,00000118,false,Rx,0,8,39,0F,F0,20,00,00,01,00,
21935189,00000154,false,Rx,0,8,02,30,08,00,00,00,20,AF,
21940996,00000266,false,Rx,0,8,8C,04,00,00,03,03,02,00,
21941290,00000118,false,Rx,0,8,2A,00,F0,20,00,00,01,00,
21945179,00000154,false,Rx,0,8,02,30,08,00,00,00,40,CF,
21950981,00000266,false,Rx,0,8,8C,08,00,00,04,04,03,00,
21951274,00000118,false,Rx,0,8,2B,01,F0,20,00,00,01,00,
21955243,00000154,false,Rx,0,8,02,30,08,00,00,00,60,EF,
21960962,00000266,false,Rx,0,8,8C,04,00,00,01,01,01,00,
21961255,00000118,false,Rx,0,8,2C,02,F0,20,00,00,01,00,
21965216,00000154,false,Rx,0,8,02,30,08,00,00,00,80,0F,
21971019,00000266,false,Rx,0,8,8C,04,00,00,02,02,01,00,
21971230,00000118,false,Rx,0,8,2D,03,F0,20,00,00,01,00,
21971432,00000126,false,Rx,0,3,00,08,00,00,00,00,00,00,
21971551,000001D6,false,Rx,0,5,D0,C8,05,08,00,00,00,00,
21971752,00000268,false,Rx,0,5,02,02,FF,01,FF,00,00,00,
21972043,00000396,false,Rx,0,8,F7,FF,FF,28,FF,FF,FF,FF,
21975208,00000154,false,Rx,0,8,02,30,08,00,00,00,A0,2F,
21982679,00000266,false,Rx,0,8,8D,06,00,00,02,02,01,00,
21982767,00000118,false,Rx,0,8,2E,04,F0,20,00,00,01,00,
21985246,00000154,false,Rx,0,8,02,30,08,00,00,00,C0,4F,
21990977,00000266,false,Rx,0,8,8C,04,00,00,02,02,01,00,
21991270,00000118,false,Rx,0,8,2F,05,F0,20,00,00,01,00,
21995237,00000154,false,Rx,0,8,02,30,08,00,00,00,E0,6F,
22001038,00000266,false,Rx,0,8,8C,04,00,00,02,02,01,00,
22001330,00000118,false,Rx,0,8,30,06,F0,20,00,00,01,00,
22005208,00000154,false,Rx,0,8,02,30,08,00,00,00,00,8F,
22011098,00000266,false,Rx,0,8,8C,04,00,00,01,01,00,00,
22011392,00000118,false,Rx,0,8,31,07,F0,20,00,00,01,00,
22015192,00000154,false,Rx,0,8,02,30,08,00,00,00,20,AF,
22021252,00000266,false,Rx,0,8,8C,04,00,00,04,04,03,00,
22021454,00000118,false,Rx,0,8,32,08,F0,20,00,00,01,00,
22025180,00000154,false,Rx,0,8,02,30,08,00,00,00,40,CF,
22031238,00000266,false,Rx,0,8,8D,06,00,00,05,05,04,00,
22031440,00000118,false,Rx,0,8,33,09,F0,20,00,00,01,00,
22035195,00000154,false,Rx,0,8,02,30,08,00,00,00,60,EF,
22041192,00000266,false,Rx,0,8,8C,04,00,00,03,03,02,00,
22041477,00000118,false,Rx,0,8,34,0A,F0,20,00,00,01,00,
22045195,00000154,false,Rx,0,8,02,30,08,00,00,00,80,0F,
22051251,00000266,false,Rx,0,8,8C,04,00,00,03,03,02,00,
22051453,00000118,false,Rx,0,8,35,0B,F0,20,00,00,01,00,
22055180,00000154,false,Rx,0,8,02,30,08,00,00,00,A0,2F,
22060983,00000266,false,Rx,0,8,8C,14,00,00,02,02,01,00,
22061192,00000118,false,Rx,0,8,36,0C,F0,20,00,00,01,00,
22065166,00000154,false,Rx,0,8,02,30,08,00,00,00,C0,4F,
22070980,00000266,false,Rx,0,8,8C,04,00,00,02,02,01,00,
22071183,00000118,false,Rx,0,8,37,0D,F0,20,00,00,01,00,
22071385,00000126,false,Rx,0,3,00,08,00,00,00,00,00,00,
22071587,000001D6,false,Rx,0,5,D0,C8,05,08,00,00,00,00,
22071789,00000268,false,Rx,0,5,02,02,FF,01,FF,00,00,00,
22071994,00000396,false,Rx,0,8,F7,FF,FF,28,FF,FF,FF,FF,
22075213,00000154,false,Rx,0,8,02,30,08,00,00,00,E0,6F,
22080973,00000266,false,Rx,0,8,8C,04,00,00,02,02,01,00,
22081266,00000656,false,Rx,0,8,11,00,00,00,00,00,00,00,
22081468,00000118,false,Rx,0,8,38,0E,F0,20,00,00,01,00,
22081753,00000376,false,Rx,0,8,3A,39,28,50,39,95,7D,03,
22081958,00000757,false,Rx,0,8,31,00,00,00,00,00,00,00,
22082168,00000556,false,Rx,0,7,39,39,00,3A,00,28,00,00,
22082453,00000757,false,Rx,0,8,42,00,01,01,04,05,05,76,
22082572,00000557,false,Rx,0,3,43,48,05,00,00,00,00,00,
22082774,00000757,false,Rx,0,8,43,22,2B,25,4E,53,50,75,
22083060,00000356,false,Rx,0,8,00,00,00,00,00,40,02,00,
22083270,00000757,false,Rx,0,8,44,59,A9,51,B0,69,71,8B,
22083473,00000357,false,Rx,0,8,04,80,07,08,00,21,00,00,
22083758,00000757,false,Rx,0,8,46,39,39,28,39,3A,39,39,
22083964,0000035A,false,Rx,0,8,00,00,80,06,00,00,00,00,
22084181,00000757,false,Rx,0,8,48,28,28,00,00,00,00,00,
22084466,0000035B,false,Rx,0,8,00,00,00,00,40,02,04,00,
22084669,00000757,false,Rx,0,8,2B,00,00,00,00,00,00,00,
22090239,00000279,false,Rx,0,2,04,00,00,00,00,00,00,00,
22090327,00000336,false,Rx,0,3,FF,01,FF,00,00,00,00,00,
22090414,000003B6,false,Rx,0,4,FF,FF,FF,FF,00,00,00,00,
22090501,00000154,false,Rx,0,8,02,30,08,00,00,00,00,8F,
22090588,000003D6,false,Rx,0,8,FF,FF,FF,FF,FF,FF,11,FF,
22090958,00000266,false,Rx,0,8,8C,04,00,00,04,04,03,00,
22091244,00000118,false,Rx,0,8,39,0F,F0,20,00,00,01,00,
22095203,00000154,false,Rx,0,8,02,30,08,00,00,00,20,AF,
22101024,00000266,false,Rx,0,8,8C,05,00,00,04,04,03,00,
22101227,00000118,false,Rx,0,8,2A,00,F0,20,00,00,01,00,
22105194,00000154,false,Rx,0,8,02,30,08,00,00,00,40,CF,
22110999,00000266,false,Rx,0,8,8C,0C,00,00,06,06,05,00,
22111203,00000118,false,Rx,0,8,2B,01,F0,20,00,00,01,00,
22115180,00000154,false,Rx,0,8,02,30,08,00,00,00,60,EF,
22120980,00000266,false,Rx,0,8,8C,04,00,00,03,03,02,00,
22121274,00000118,false,Rx,0,8,2C,02,F0,20,00,00,01,00,
22125243,00000154,false,Rx,0,8,02,30,08,00,00,00,80,0F,
22130964,00000266,false,Rx,0,8,8C,05,00,00,02,02,01,00,
22131250,00000118,false,Rx,0,8,2D,03,F0,20,00,00,01,00,
22135210,00000154,false,Rx,0,8,02,30,08,00,00,00,A0,2F,
22142895,00000266,false,Rx,0,8,8D,05,00,00,01,01,00,00,
22142986,00000118,false,Rx,0,8,2E,04,F0,20,00,00,01,00,
22144199,00000304,false,Rx,0,8,00,22,01,00,00,00,D0,04,
22145239,00000154,false,Rx,0,8,02,30,08,00,00,00,C0,4F,
22150958,00000266,false,Rx,0,8,8C,08,00,00,01,01,00,00,
22151250,00000118,false,Rx,0,8,2F,05,F0,20,00,00,01,00,
22155211,00000154,false,Rx,0,8,02,30,08,00,00,00,E0,6F,
22161019,00000266,false,Rx,0,8,8C,04,00,00,02,02,01,00,
22161312,00000118,false,Rx,0,8,30,06,F0,20,00,00,01,00,
22165199,00000154,false,Rx,0,8,02,30,08,00,00,00,00,8F,
22171090,00000266,false,Rx,0,8,8C,06,00,00,03,03,02,00,
22171383,00000118,false,Rx,0,8,31,07,F0,20,00,00,01,00,
22171502,00000126,false,Rx,0,3,00,08,00,00,00,00,00,00,
22171704,000001D6,false,Rx,0,5,D0,C8,05,08,00,00,00,00,
22171991,00000268,false,Rx,0,5,03,03,FF,01,FF,00,00,00,
22172200,00000396,false,Rx,0,8,F7,FF,FF,28,FF,FF,FF,FF,
22175168,00000154,false,Rx,0,8,02,30,08,00,00,00,20,AF,
22181248,00000266,false,Rx,0,8,8C,04,00,00,05,05,04,00,
22181449,00000118,false,Rx,0,8,32,08,F0,20,00,00,01,00,
22185188,00000154,false,Rx,0,8,02,30,08,00,00,00,40,CF,
22191174,00000266,false,Rx,0,8,8D,06,00,00,05,05,04,00,
22191459,00000118,false,Rx,0,8,33,09,F0,20,00,00,01,00,
22195984,00000154,false,Rx,0,8,02,30,08,00,00,00,60,EF,
22201210,00000266,false,Rx,0,8,8D,04,00,00,04,04,03,00,
22201494,00000118,false,Rx,0,8,34,0A,F0,20,00,00,01,00,
22205213,00000154,false,Rx,0,8,02,30,08,00,00,00,80,0F,
22210933,00000266,false,Rx,0,8,8C,0A,00,00,03,03,02,00,
22211222,00000118,false,Rx,0,8,35,0B,F0,20,00,00,01,00,
22215192,00000154,false,Rx,0,8,02,30,08,00,00,00,A0,2F,
22220997,00000266,false,Rx,0,8,8C,07,00,00,05,05,05,00,
22221207,00000118,false,Rx,0,8,36,0C,F0,20,00,00,01,00,
22225180,00000154,false,Rx,0,8,02,30,08,00,00,00,C0,4F,
22230983,00000266,false,Rx,0,8,8C,04,00,00,04,04,03,00,
22231186,00000118,false,Rx,0,8,37,0D,F0,20,00,00,01,00,
22235258,00000154,false,Rx,0,8,02,30,08,00,00,00,E0,6F,
22240980,00000266,false,Rx,0,8,8D,0B,00,00,02,02,01,00,
22241189,00000118,false,Rx,0,8,38,0E,F0,20,00,00,01,00,
22245156,00000154,false,Rx,0,8,02,30,08,00,00,00,00,8F,
22250961,00000266,false,Rx,0,8,8C,05,00,00,02,02,01,00,
22251163,00000118,false,Rx,0,8,39,0F,F0,20,00,00,01,00,
22255220,00000154,false,Rx,0,8,02,30,08,00,00,00,20,AF,
22260941,00000266,false,Rx,0,8,8C,12,00,00,02,02,01,00,
22261235,00000118,false,Rx,0,8,2A,00,F0,20,00,00,01,00,
22265214,00000154,false,Rx,0,8,02,30,08,00,00,00,40,CF,
22270937,00000266,false,Rx,0,8,8C,08,00,00,02,02,01,00,
22271225,00000118,false,Rx,0,8,2B,01,F0,20,00,00,01,00,
22271344,00000126,false,Rx,0,3,00,08,00,00,00,00,00,00,
22271545,000001D6,false,Rx,0,5,D0,C8,05,08,00,00,00,00,
22271746,00000268,false,Rx,0,5,02,02,FF,01,FF,00,00,00,
22271949,00000396,false,Rx,0,8,F7,FF,FF,28,FF,FF,FF,FF,
22275175,00000154,false,Rx,0,8,02,30,08,00,00,00,60,EF,
22280977,00000266,false,Rx,0,8,8C,04,00,00,06,06,05,00,
22281187,00000118,false,Rx,0,8,2C,02,F0,20,00,00,01,00,
22285208,00000154,false,Rx,0,8,02,30,08,00,00,00,80,0F,
22290977,00000266,false,Rx,0,8,8C,04,00,00,02,02,01,00,
22291179,00000118,false,Rx,0,8,2D,03,F0,20,00,00,01,00,
22295236,00000154,false,Rx,0,8,02,30,08,00,00,00,A0,2F,
22300980,00000266,false,Rx,0,8,8C,05,00,00,02,02,01,00,
22301190,00000118,false,Rx,0,8,2E,04,F0,20,00,00,01,00,
22305161,00000154,false,Rx,0,8,02,30,08,00,00,00,C0,4F,
22310962,00000266,false,Rx,0,8,8C,07,00,00,04,04,03,00,
22311254,00000118,false,Rx,0,8,2F,05,F0,20,00,00,01,00,
22315221,00000154,false,Rx,0,8,02,30,08,00,00,00,E0,6F,
22321024,00000266,false,Rx,0,8,8C,10,00,00,04,04,03,00,
22321316,00000118,false,Rx,0,8,30,06,F0,20,00,00,01,00,
22325201,00000154,false,Rx,0,8,02,30,08,00,00,00,00,8F,
22331095,00000266,false,Rx,0,8,8C,05,00,00,06,06,05,00,
22331388,00000118,false,Rx,0,8,31,07,F0,20,00,00,01,00,
22335192,00000154,false,Rx,0,8,02,30,08,00,00,00,20,AF,
22341251,00000266,false,Rx,0,8,8C,04,00,00,03,03,02,00,
22341454,00000118,false,Rx,0,8,32,08,F0,20,00,00,01,00,
22345181,00000154,false,Rx,0,8,02,30,08,00,00,00,40,CF,
22352183,00000266,false,Rx,0,8,8D,0D,00,00,04,04,03,00,
22352271,00000118,false,Rx,0,8,33,09,F0,20,00,00,01,00,
22355153,00000154,false,Rx,0,8,02,30,08,00,00,00,60,EF,
22361210,00000266,false,Rx,0,8,8D,04,00,00,03,03,02,00,
22361411,00000118,false,Rx,0,8,34,0A,F0,20,00,00,01,00,
22365213,00000154,false,Rx,0,8,02,30,08,00,00,00,80,0F,
22370934,00000266,false,Rx,0,8,8C,07,00,00,03,03,02,00,
22371228,00000118,false,Rx,0,8,35,0B,F0,20,00,00,01,00,
22371348,00000126,false,Rx,0,3,00,08,00,00,00,00,00,00,
22371550,000001D6,false,Rx,0,5,D0,C8,05,08,00,00,00,00,
22371752,00000268,false,Rx,0,5,03,03,FF,01,FF,00,00,00,
22371955,00000396,false,Rx,0,8,F7,FF,FF,28,FF,FF,FF,FF,
22375181,00000154,false,Rx,0,8,02,30,08,00,00,00,A0,2F,
22380983,00000266,false,Rx,0,8,8C,08,00,00,02,02,01,00,
22381191,00000118,false,Rx,0,8,36,0C,F0,20,00,00,01,00,
22385209,00000154,false,Rx,0,8,02,30,08,00,00,00,C0,4F,
22390955,00000266,false,Rx,0,8,8C,06,00,00,02,02,01,00,
22391165,00000118,false,Rx,0,8,37,0D,F0,20,00,00,01,00,
22395210,00000154,false,Rx,0,8,02,30,08,00,00,00,E0,6F,
22400934,00000266,false,Rx,0,8,8C,04,00,00,01,01,00,00,
22401222,00000118,false,Rx,0,8,38,0E,F0,20,00,00,01,00,
22405172,00000154,false,Rx,0,8,02,30,08,00,00,00,00,8F,
22410977,00000266,false,Rx,0,8,8C,04,00,00,04,04,03,00,
22411185,00000118,false,Rx,0,8,39,0F,F0,20,00,00,01,00,
22415155,00000154,false,Rx,0,8,02,30,08,00,00,00,20,AF,
22420958,00000266,false,Rx,0,8,8C,05,00,00,04,04,03,00,
22421249,00000118,false,Rx,0,8,2A,00,F0,20,00,00,01,00,
22425126,00000154,false,Rx,0,8,02,30,08,00,00,00,40,CF,
22430937,00000266,false,Rx,0,8,8C,05,00,00,07,07,06,00,
22431232,00000118,false,Rx,0,8,2B,01,F0,20,00,00,01,00,
22435199,00000154,false,Rx,0,8,02,30,08,00,00,00,60,EF,
22440919,00000266,false,Rx,0,8,8C,04,00,00,05,05,05,00,
22441214,00000118,false,Rx,0,8,2C,02,F0,20,00,00,01,00,
22445187,00000154,false,Rx,0,8,02,30,08,00,00,00,80,0F,
22450991,00000266,false,Rx,0,8,8C,0A,00,00,01,01,00,00,
22451200,00000118,false,Rx,0,8,2D,03,F0,20,00,00,01,00,
22456775,00000154,false,Rx,0,8,02,30,08,00,00,00,A0,2F,
22460915,00000266,false,Rx,0,8,8D,06,00,00,03,03,02,00,
22461209,00000118,false,Rx,0,8,2E,04,F0,20,00,00,01,00,
22465192,00000154,false,Rx,0,8,02,30,08,00,00,00,C0,4F,
22470994,00000266,false,Rx,0,8,8C,04,00,00,02,02,01,00,
22471205,00000118,false,Rx,0,8,2F,05,F0,20,00,00,01,00,
22471407,00000126,false,Rx,0,3,00,08,00,00,00,00,00,00,
22471609,000001D6,false,Rx,0,5,D0,C8,05,08,00,00,00,00,
22471811,00000268,false,Rx,0,5,02,02,FF,01,FF,00,00,00,
22472015,00000396,false,Rx,0,8,F7,FF,FF,28,FF,FF,FF,FF,
22475151,00000154,false,Rx,0,8,02,30,08,00,00,00,E0,6F,
22481033,00000266,false,Rx,0,8,8C,04,00,00,02,02,01,00,
22481327,00000118,false,Rx,0,8,30,06,F0,20,00,00,01,00,
22485131,00000154,false,Rx,0,8,02,30,08,00,00,00,00,8F,
22491110,00000266,false,Rx,0,8,8D,08,00,00,01,01,01,00,
22491404,00000118,false,Rx,0,8,31,07,F0,20,00,00,01,00,
22495114,00000154,false,Rx,0,8,02,30,08,00,00,00,20,AF,
22501190,00000266,false,Rx,0,8,8C,0E,00,00,01,01,01,00,
22501391,00000118,false,Rx,0,8,32,08,F0,20,00,00,01,00,
22505194,00000154,false,Rx,0,8,02,30,08,00,00,00,40,CF,
22511189,00000266,false,Rx,0,8,8D,06,00,00,04,04,03,00,
22511392,00000118,false,Rx,0,8,33,09,F0,20,00,00,01,00,
22515192,00000154,false,Rx,0,8,02,30,08,00,00,00,60,EF,
22521170,00000266,false,Rx,0,8,8C,04,00,00,04,04,03,00,
22521372,00000118,false,Rx,0,8,34,0A,F0,20,00,00,01,00,
22525181,00000154,false,Rx,0,8,02,30,08,00,00,00,80,0F,
22530898,00000266,false,Rx,0,8,8C,09,00,00,06,06,05,00,
22531193,00000118,false,Rx,0,8,35,0B,F0,20,00,00,01,00,
22535162,00000154,false,Rx,0,8,02,30,08,00,00,00,A0,2F,
22540913,00000266,false,Rx,0,8,8C,08,00,00,06,06,05,00,
22541208,00000118,false,Rx,0,8,36,0C,F0,20,00,00,01,00,
22545181,00000154,false,Rx,0,8,02,30,08,00,00,00,C0,4F,
22550897,00000266,false,Rx,0,8,8D,04,00,00,02,02,01,00,
22551192,00000118,false,Rx,0,8,37,0D,F0,20,00,00,01,00,
22555243,00000154,false,Rx,0,8,02,30,08,00,00,00,E0,6F,
22561228,00000266,false,Rx,0,8,8C,05,00,00,05,05,04,00,
22561316,00000118,false,Rx,0,8,38,0E,F0,20,00,00,01,00,
22565201,00000154,false,Rx,0,8,02,30,08,00,00,00,00,8F,
22570926,00000266,false,Rx,0,8,8C,06,00,00,04,04,03,00,
22571130,00000118,false,Rx,0,8,39,0F,F0,20,00,00,01,00,
22571339,00000126,false,Rx,0,3,00,08,00,00,00,00,00,00,
22571540,000001D6,false,Rx,0,5,D0,C8,05,08,00,00,00,00,
22571659,00000268,false,Rx,0,5,04,04,FF,01,FF,00,00,00,
22571945,00000396,false,Rx,0,8,F7,FF,FF,28,FF,FF,FF,FF,
22575169,00000154,false,Rx,0,8,02,30,08,00,00,00,20,AF,
22580885,00000266,false,Rx,0,8,8D,07,00,00,06,06,05,00,
22581183,00000118,false,Rx,0,8,2A,00,F0,20,00,00,01,00,
22585164,00000154,false,Rx,0,8,02,30,08,00,00,00,40,CF,
22590964,00000266,false,Rx,0,8,8C,05,00,00,03,03,02,00,
22591174,00000118,false,Rx,0,8,2B,01,F0,20,00,00,01,00,
22595143,00000154,false,Rx,0,8,02,30,08,00,00,00,60,EF,
22600951,00000266,false,Rx,0,8,8D,05,00,00,02,02,01,00,
22601161,00000118,false,Rx,0,8,2C,02,F0,20,00,00,01,00,
22605121,00000154,false,Rx,0,8,02,30,08,00,00,00,80,0F,
22610935,00000266,false,Rx,0,8,8C,04,00,00,03,03,02,00,
22611139,00000118,false,Rx,0,8,2D,03,F0,20,00,00,01,00,
22615178,00000154,false,Rx,0,8,02,30,08,00,00,00,A0,2F,
22620894,00000266,false,Rx,0,8,8C,08,00,00,02,02,02,00,
22621189,00000118,false,Rx,0,8,2E,04,F0,20,00,00,01,00,
22625158,00000154,false,Rx,0,8,02,30,08,00,00,00,C0,4F,
22630959,00000266,false,Rx,0,8,8D,09,00,00,03,03,02,00,
22631252,00000118,false,Rx,0,8,2F,05,F0,20,00,00,01,00,
22635129,00000154,false,Rx,0,8,02,30,08,00,00,00,E0,6F,
22641110,00000266,false,Rx,0,8,8D,04,00,00,04,04,03,00,
22641321,00000118,false,Rx,0,8,30,06,F0,20,00,00,01,00,
22645114,00000154,false,Rx,0,8,02,30,08,00,00,00,00,8F,
22651098,00000266,false,Rx,0,8,8C,04,00,00,02,02,01,00,
22651392,00000118,false,Rx,0,8,31,07,F0,20,00,00,01,00,
22655104,00000154,false,Rx,0,8,02,30,08,00,00,00,20,AF,
22661175,00000266,false,Rx,0,8,8C,0E,00,00,02,02,01,00,
22661377,00000118,false,Rx,0,8,32,08,F0,20,00,00,01,00,
22665793,00000154,false,Rx,0,8,02,30,08,00,00,00,40,CF,
22671103,00000266,false,Rx,0,8,8C,04,00,00,06,06,05,00,
22671397,00000118,false,Rx,0,8,33,09,F0,20,00,00,01,00,
22671515,00000126,false,Rx,0,3,00,08,00,00,00,00,00,00,
22671716,000001D6,false,Rx,0,5,D0,C8,05,08,00,00,00,00,
22671919,00000268,false,Rx,0,5,07,07,FF,01,FF,00,00,00,
22672122,00000396,false,Rx,0,8,F7,FF,FF,28,FF,FF,FF,FF,
22675180,00000154,false,Rx,0,8,02,30,08,00,00,00,60,EF,
22681155,00000266,false,Rx,0,8,8C,0A,00,00,03,03,02,00,
22681440,00000118,false,Rx,0,8,34,0A,F0,20,00,00,01,00,
22685173,00000154,false,Rx,0,8,02,30,08,00,00,00,80,0F,
22690902,00000266,false,Rx,0,8,8C,04,00,00,02,02,01,00,
22691196,00000118,false,Rx,0,8,35,0B,F0,20,00,00,01,00,
22695114,00000154,false,Rx,0,8,02,30,08,00,00,00,A0,2F,
22700932,00000266,false,Rx,0,8,8C,06,00,00,02,02,01,00,
22701136,00000118,false,Rx,0,8,36,0C,F0,20,00,00,01,00,
22705195,00000154,false,Rx,0,8,02,30,08,00,00,00,C0,4F,
22710915,00000266,false,Rx,0,8,8C,05,00,00,03,03,02,00,
22711209,00000118,false,Rx,0,8,37,0D,F0,20,00,00,01,00,
22715177,00000154,false,Rx,0,8,02,30,08,00,00,00,E0,6F,
22720916,00000266,false,Rx,0,8,8C,09,00,00,02,02,01,00,
22721120,00000118,false,Rx,0,8,38,0E,F0,20,00,00,01,00,
22725095,00000154,false,Rx,0,8,02,30,08,00,00,00,00,8F,
22730907,00000266,false,Rx,0,8,8C,04,00,00,04,04,03,00,
22731111,00000118,false,Rx,0,8,39,0F,F0,20,00,00,01,00,
22735175,00000154,false,Rx,0,8,02,30,08,00,00,00,20,AF,
22740892,00000266,false,Rx,0,8,8C,05,00,00,03,03,02,00,
22741189,00000118,false,Rx,0,8,2A,00,F0,20,00,00,01,00,
22745158,00000154,false,Rx,0,8,02,30,08,00,00,00,40,CF,
22750902,00000266,false,Rx,0,8,8D,04,00,00,02,02,01,00,
22751196,00000118,false,Rx,0,8,2B,01,F0,20,00,00,01,00,
22755167,00000154,false,Rx,0,8,02,30,08,00,00,00,60,EF,
22760883,00000266,false,Rx,0,8,8C,04,00,00,02,02,01,00,
22761180,00000118,false,Rx,0,8,2C,02,F0,20,00,00,01,00,
22765139,00000154,false,Rx,0,8,02,30,08,00,00,00,80,0F,
22770923,00000266,false,Rx,0,8,8C,04,00,00,05,05,04,00,
22771127,00000118,false,Rx,0,8,2D,03,F0,20,00,00,01,00,
22771338,00000126,false,Rx,0,3,00,08,00,00,00,00,00,00,
22771457,000001D6,false,Rx,0,5,D0,C8,05,08,00,00,00,00,
22771742,00000268,false,Rx,0,5,05,05,FF,01,FF,00,00,00,
22771944,00000396,false,Rx,0,8,F7,FF,FF,28,FF,FF,FF,FF,
22775170,00000154,false,Rx,0,8,02,30,08,00,00,00,A0,2F,
22780971,00000266,false,Rx,0,8,8D,04,00,00,04,04,03,00,
22781181,00000118,false,Rx,0,8,2E,04,F0,20,00,00,01,00,
22785164,00000154,false,Rx,0,8,02,30,08,00,00,00,C0,4F,
22791009,00000266,false,Rx,0,8,8C,04,00,00,04,04,04,00,
22791219,00000118,false,Rx,0,8,2F,05,F0,20,00,00,01,00,
22795129,00000154,false,Rx,0,8,02,30,08,00,00,00,E0,6F,
22801113,00000266,false,Rx,0,8,8C,05,00,00,02,02,01,00,
22801324,00000118,false,Rx,0,8,30,06,F0,20,00,00,01,00,
22805116,00000154,false,Rx,0,8,02,30,08,00,00,00,00,8F,
22811098,00000266,false,Rx,0,8,8C,04,00,00,02,02,01,00,
22811391,00000118,false,Rx,0,8,31,07,F0,20,00,00,01,00,
22815105,00000154,false,Rx,0,8,02,30,08,00,00,00,20,AF,
22822762,00000266,false,Rx,0,8,8C,04,00,00,03,03,02,00,
22822850,00000118,false,Rx,0,8,32,08,F0,20,00,00,01,00,
22825152,00000154,false,Rx,0,8,02,30,08,00,00,00,40,CF,
22831120,00000266,false,Rx,0,8,8C,04,00,00,01,01,00,00,
22831413,00000118,false,Rx,0,8,33,09,F0,20,00,00,01,00,
22835125,00000154,false,Rx,0,8,02,30,08,00,00,00,60,EF,
22840937,00000266,false,Rx,0,8,8D,07,00,00,01,01,00,00,
22841140,00000118,false,Rx,0,8,34,0A,F0,20,00,00,01,00,
22845108,00000154,false,Rx,0,8,02,30,08,00,00,00,80,0F,
22850921,00000266,false,Rx,0,8,8C,06,00,00,03,03,02,00,
22851125,00000118,false,Rx,0,8,35,0B,F0,20,00,00,01,00,
22855099,00000154,false,Rx,0,8,02,30,08,00,00,00,A0,2F,
22860913,00000266,false,Rx,0,8,8C,09,00,00,01,01,00,00,
22861208,00000118,false,Rx,0,8,36,0C,F0,20,00,00,01,00,
22865192,00000154,false,Rx,0,8,02,30,08,00,00,00,C0,4F,
22870910,00000266,false,Rx,0,8,8C,05,00,00,01,01,00,00,
22871114,00000118,false,Rx,0,8,37,0D,F0,20,00,00,01,00,
22871324,00000126,false,Rx,0,3,00,08,00,00,00,00,00,00,
22871526,000001D6,false,Rx,0,5,D0,C8,05,08,00,00,00,00,
22871729,00000268,false,Rx,0,5,01,01,FF,01,FF,00,00,00,
22871930,00000396,false,Rx,0,8,F7,FF,FF,28,FF,FF,FF,FF,
22875586,00000154,false,Rx,0,8,02,30,08,00,00,00,E0,6F,
22880890,00000266,false,Rx,0,8,8D,04,00,00,03,03,02,00,
22881186,00000118,false,Rx,0,8,38,0E,F0,20,00,00,01,00,
22885163,00000154,false,Rx,0,8,02,30,08,00,00,00,00,8F,
22890894,00000266,false,Rx,0,8,8C,09,00,00,02,02,01,00,
22891188,00000118,false,Rx,0,8,39,0F,F0,20,00,00,01,00,
22895155,00000154,false,Rx,0,8,02,30,08,00,00,00,20,AF,
22900916,00000266,false,Rx,0,8,8D,05,00,00,02,02,01,00,
22901119,00000118,false,Rx,0,8,2A,00,F0,20,00,00,01,00,
22905095,00000154,false,Rx,0,8,02,30,08,00,00,00,40,CF,
22910907,00000266,false,Rx,0,8,8C,04,00,00,04,04,03,00,
22911111,00000118,false,Rx,0,8,2B,01,F0,20,00,00,01,00,
22915084,00000154,false,Rx,0,8,02,30,08,00,00,00,60,EF,
22920892,00000266,false,Rx,0,8,8D,09,00,00,04,04,03,00,
22921098,00000118,false,Rx,0,8,2C,02,F0,20,00,00,01,00,
22925156,00000154,false,Rx,0,8,02,30,08,00,00,00,80,0F,
22930874,00000266,false,Rx,0,8,8C,06,00,00,06,06,05,00,
22931169,00000118,false,Rx,0,8,2D,03,F0,20,00,00,01,00,
22935129,00000154,false,Rx,0,8,02,30,08,00,00,00,A0,2F,
22940941,00000266,false,Rx,0,8,8C,06,00,00,03,03,02,00,
22941143,00000118,false,Rx,0,8,2E,04,F0,20,00,00,01,00,
22945110,00000154,false,Rx,0,8,02,30,08,00,00,00,C0,4F,
22951011,00000266,false,Rx,0,8,8D,04,00,00,03,03,02,00,
22951221,00000118,false,Rx,0,8,2F,05,F0,20,00,00,01,00,
22955102,00000154,false,Rx,0,8,02,30,08,00,00,00,E0,6F,
22961084,00000266,false,Rx,0,8,8C,06,00,00,02,02,01,00,
22961294,00000118,false,Rx,0,8,30,06,F0,20,00,00,01,00,
22965095,00000154,false,Rx,0,8,02,30,08,00,00,00,00,8F,
22971167,00000266,false,Rx,0,8,8C,0A,00,00,01,01,00,00,
22971370,00000118,false,Rx,0,8,31,07,F0,20,00,00,01,00,
22971489,00000126,false,Rx,0,3,00,08,00,00,00,00,00,00,
22971690,000001D6,false,Rx,0,5,D0,C8,05,08,00,00,00,00,
22971977,00000268,false,Rx,0,5,01,01,FF,01,FF,00,00,00,
22972180,00000396,false,Rx,0,8,F7,FF,FF,28,FF,FF,FF,FF,
22975136,00000154,false,Rx,0,8,02,30,08,00,00,00,20,AF,
22981104,00000266,false,Rx,0,8,8C,0C,00,00,05,05,04,00,
22981398,00000118,false,Rx,0,8,32,08,F0,20,00,00,01,00,
22985120,00000154,false,Rx,0,8,02,30,08,00,00,00,40,CF,
22991114,00000266,false,Rx,0,8,8C,05,00,00,03,03,02,00,
22991325,00000118,false,Rx,0,8,33,09,F0,20,00,00,01,00,
22995120,00000154,false,Rx,0,8,02,30,08,00,00,00,60,EF,
23000890,00000266,false,Rx,0,8,8C,07,00,00,03,03,02,00,
23001098,00000118,false,Rx,0,8,34,0A,F0,20,00,00,01,00,
23005096,00000154,false,Rx,0,8,02,30,08,00,00,00,80,0F,
23010907,00000266,false,Rx,0,8,8C,07,00,00,04,04,03,00,
23011111,00000118,false,Rx,0,8,35,0B,F0,20,00,00,01,00,
23015084,00000154,false,Rx,0,8,02,30,08,00,00,00,A0,2F,
23020890,00000266,false,Rx,0,8,8C,0A,00,00,01,01,00,00,
23021095,00000118,false,Rx,0,8,36,0C,F0,20,00,00,01,00,
23025155,00000154,false,Rx,0,8,02,30,08,00,00,00,C0,4F,
23031808,00000266,false,Rx,0,8,8C,04,00,00,02,02,01,00,
23031896,00000118,false,Rx,0,8,37,0D,F0,20,00,00,01,00,
23035111,00000154,false,Rx,0,8,02,30,08,00,00,00,E0,6F,
23040867,00000266,false,Rx,0,8,8C,04,00,00,01,01,00,00,
23041162,00000118,false,Rx,0,8,38,0E,F0,20,00,00,01,00,
23045123,00000154,false,Rx,0,8,02,30,08,00,00,00,00,8F,
23050851,00000266,false,Rx,0,8,8C,08,00,00,03,03,03,00,
23051138,00000118,false,Rx,0,8,39,0F,F0,20,00,00,01,00,
23055105,00000154,false,Rx,0,8,02,30,08,00,00,00,20,AF,
23060838,00000266,false,Rx,0,8,8C,06,00,00,04,04,03,00,
23061125,00000118,false,Rx,0,8,2A,00,F0,20,00,00,01,00,
23065112,00000154,false,Rx,0,8,02,30,08,00,00,00,40,CF,
23070851,00000266,false,Rx,0,8,8C,06,00,00,02,02,01,00,
23071138,00000118,false,Rx,0,8,2B,01,F0,20,00,00,01,00,
23071265,00000126,false,Rx,0,3,00,08,00,00,00,00,00,00,
23071467,000001D6,false,Rx,0,5,D0,C8,05,08,00,00,00,00,
23071669,00000268,false,Rx,0,5,02,02,FF,01,FF,00,00,00,
23071871,00000396,false,Rx,0,8,F7,FF,FF,28,FF,FF,FF,FF,
23075090,00000154,false,Rx,0,8,02,30,08,00,00,00,60,EF,
23080897,00000266,false,Rx,0,8,8C,08,00,00,04,04,03,00,
23081101,00000656,false,Rx,0,8,12,16,48,B4,7A,66,41,FD,
23081395,00000118,false,Rx,0,8,2C,02,F0,20,00,00,01,00,
23081597,00000376,false,Rx,0,8,3A,39,28,50,39,95,7D,03,
23081800,00000757,false,Rx,0,8,31,00,00,00,00,00,00,00,
23085341,00000556,false,Rx,0,7,39,39,00,3A,00,28,00,00,
23085429,00000757,false,Rx,0,8,42,00,01,01,04,05,05,76,
23085549,00000557,false,Rx,0,3,43,48,05,00,00,00,00,00,
23085635,00000757,false,Rx,0,8,43,22,2C,25,4E,53,50,75,
23085722,00000356,false,Rx,0,8,00,00,00,00,00,40,02,00,
23085809,00000757,false,Rx,0,8,44,5E,A9,52,B0,6D,71,8B,
23085896,00000357,false,Rx,0,8,04,80,07,08,00,21,00,00,
23085985,00000757,false,Rx,0,8,46,39,39,28,39,3A,39,39,
23086072,0000035A,false,Rx,0,8,00,00,80,06,00,00,00,00,
23086168,00000757,false,Rx,0,8,48,28,28,00,00,00,00,00,
23086255,0000035B,false,Rx,0,8,00,00,00,00,40,02,04,00,
23086342,00000757,false,Rx,0,8,2B,00,00,00,00,00,00,00,
23086429,00000279,false,Rx,0,2,04,00,00,00,00,00,00,00,
23086515,00000336,false,Rx,0,3,FF,01,FF,00,00,00,00,00,
23086602,00000154,false,Rx,0,8,02,30,08,00,00,00,80,0F,
23086689,000003B6,false,Rx,0,4,FF,FF,FF,FF,00,00,00,00,
23086776,000003D6,false,Rx,0,8,FF,FF,FF,FF,FF,FF,11,FF,
23090845,00000266,false,Rx,0,8,8C,05,00,00,01,01,00,00,
23091132,00000118,false,Rx,0,8,2D,03,F0,20,00,00,01,00,
23095102,00000154,false,Rx,0,8,02,30,08,00,00,00,A0,2F,
23100915,00000266,false,Rx,0,8,8C,04,00,00,03,03,02,00,
23101210,00000118,false,Rx,0,8,2E,04,F0,20,00,00,01,00,
23105052,00000154,false,Rx,0,8,02,30,08,00,00,00,C0,4F,
23111023,00000266,false,Rx,0,8,8C,09,00,00,02,02,01,00,
23111234,00000118,false,Rx,0,8,2F,05,F0,20,00,00,01,00,
23115110,00000154,false,Rx,0,8,02,30,08,00,00,00,E0,6F,
23121096,00000266,false,Rx,0,8,8C,04,00,00,01,01,00,00,
23121306,00000118,false,Rx,0,8,30,06,F0,20,00,00,01,00,
23125101,00000154,false,Rx,0,8,02,30,08,00,00,00,00,8F,
23131079,00000266,false,Rx,0,8,8D,06,00,00,05,05,04,00,
23131373,00000118,false,Rx,0,8,31,07,F0,20,00,00,01,00,
23135090,00000154,false,Rx,0,8,02,30,08,00,00,00,20,AF,
23141127,00000266,false,Rx,0,8,8C,04,00,00,02,02,01,00,
23141337,00000118,false,Rx,0,8,32,08,F0,20,00,00,01,00,
23144047,00000304,false,Rx,0,8,00,22,01,00,00,00,D0,04,
23144257,00000316,false,Rx,0,8,11,00,00,00,00,00,00,00,
23145123,00000154,false,Rx,0,8,02,30,08,00,00,00,40,CF,
23151102,00000266,false,Rx,0,8,8C,06,00,00,04,04,03,00,
23151313,00000118,false,Rx,0,8,33,09,F0,20,00,00,01,00,
23155108,00000154,false,Rx,0,8,02,30,08,00,00,00,60,EF,
23160920,00000266,false,Rx,0,8,8C,04,00,00,06,06,05,00,
23161124,00000118,false,Rx,0,8,34,0A,F0,20,00,00,01,00,
23165098,00000154,false,Rx,0,8,02,30,08,00,00,00,80,0F,
23170824,00000266,false,Rx,0,8,8C,06,00,00,02,02,01,00,
23171111,00000118,false,Rx,0,8,35,0B,F0,20,00,00,01,00,
23171320,00000126,false,Rx,0,3,00,08,00,00,00,00,00,00,
23171439,000001D6,false,Rx,0,5,D0,C8,05,08,00,00,00,00,
23171641,00000268,false,Rx,0,5,02,02,FF,01,FF,00,00,00,
23171926,00000396,false,Rx,0,8,F7,FF,FF,28,FF,FF,FF,FF,
23175141,00000154,false,Rx,0,8,02,30,08,00,00,00,A0,2F,
23180864,00000266,false,Rx,0,8,8C,08,00,00,04,04,03,00,
23181070,00000118,false,Rx,0,8,36,0C,F0,20,00,00,01,00,
23185132,00000154,false,Rx,0,8,02,30,08,00,00,00,C0,4F,
23193166,00000266,false,Rx,0,8,8C,04,00,00,03,03,02,00,
23193254,00000118,false,Rx,0,8,37,0D,F0,20,00,00,01,00,
23195123,00000154,false,Rx,0,8,02,30,08,00,00,00,E0,6F,
23200853,00000266,false,Rx,0,8,8C,08,00,00,04,04,03,00,
23201139,00000118,false,Rx,0,8,38,0E,F0,20,00,00,01,00,
23205053,00000154,false,Rx,0,8,02,30,08,00,00,00,00,8F,
23210874,00000266,false,Rx,0,8,8C,04,00,00,01,01,00,00,
23211079,00000118,false,Rx,0,8,39,0F,F0,20,00,00,01,00,
23215047,00000154,false,Rx,0,8,02,30,08,00,00,00,20,AF,
23220857,00000266,false,Rx,0,8,8C,08,00,00,01,01,00,00,
23221143,00000118,false,Rx,0,8,2A,00,F0,20,00,00,01,00,
23225110,00000154,false,Rx,0,8,02,30,08,00,00,00,40,CF,
23230843,00000266,false,Rx,0,8,8C,0A,00,00,04,04,03,00,
23231131,00000118,false,Rx,0,8,2B,01,F0,20,00,00,01,00,
23235105,00000154,false,Rx,0,8,02,30,08,00,00,00,60,EF,
23240838,00000266,false,Rx,0,8,8C,12,00,00,07,07,06,00,
23241125,00000118,false,Rx,0,8,2C,02,F0,20,00,00,01,00,
23245347,00000154,false,Rx,0,8,02,30,08,00,00,00,80,0F,
23250898,00000266,false,Rx,0,8,8C,04,00,00,03,03,02,00,
23251102,00000118,false,Rx,0,8,2D,03,F0,20,00,00,01,00,
23255073,00000154,false,Rx,0,8,02,30,08,00,00,00,A0,2F,
23260904,00000266,false,Rx,0,8,8C,05,00,00,02,02,01,00,
23261199,00000118,false,Rx,0,8,2E,04,F0,20,00,00,01,00,
23265090,00000154,false,Rx,0,8,02,30,08,00,00,00,C0,4F,
23270979,00000266,false,Rx,0,8,8C,04,00,00,01,01,00,00,
23271271,00000118,false,Rx,0,8,2F,05,F0,20,00,00,01,00,
23271390,00000126,false,Rx,0,3,00,08,00,00,00,00,00,00,
23271592,000001D6,false,Rx,0,5,D0,C8,05,08,00,00,00,00,
23271794,00000268,false,Rx,0,5,01,01,FF,01,FF,00,00,00,
23272081,00000396,false,Rx,0,8,F7,FF,FF,28,FF,FF,FF,FF,
23275043,00000154,false,Rx,0,8,02,30,08,00,00,00,E0,6F,
23281105,00000266,false,Rx,0,8,8C,04,00,00,02,02,01,00,
23281316,00000118,false,Rx,0,8,30,06,F0,20,00,00,01,00,
23285039,00000154,false,Rx,0,8,02,30,08,00,00,00,00,8F,
23291065,00000266,false,Rx,0,8,8C,04,00,00,05,05,04,00,
23291274,00000118,false,Rx,0,8,31,07,F0,20,00,00,01,00,
23295070,00000154,false,Rx,0,8,02,30,08,00,00,00,20,AF,
23301112,00000266,false,Rx,0,8,8C,04,00,00,02,02,01,00,
23301323,00000118,false,Rx,0,8,32,08,F0,20,00,00,01,00,
23305033,00000154,false,Rx,0,8,02,30,08,00,00,00,40,CF,
23310881,00000266,false,Rx,0,8,8C,05,00,00,03,03,02,00,
23311177,00000118,false,Rx,0,8,33,09,F0,20,00,00,01,00,
23315053,00000154,false,Rx,0,8,02,30,08,00,00,00,60,EF,
23320862,00000266,false,Rx,0,8,8C,0B,00,00,02,02,01,00,
23321067,00000118,false,Rx,0,8,34,0A,F0,20,00,00,01,00,
23325034,00000154,false,Rx,0,8,02,30,08,00,00,00,80,0F,
23330848,00000266,false,Rx,0,8,8C,04,00,00,01,01,00,00,
23331135,00000118,false,Rx,0,8,35,0B,F0,20,00,00,01,00,
23335102,00000154,false,Rx,0,8,02,30,08,00,00,00,A0,2F,
23340832,00000266,false,Rx,0,8,8C,05,00,00,03,03,02,00,
23341120,00000118,false,Rx,0,8,36,0C,F0,20,00,00,01,00,
23345095,00000154,false,Rx,0,8,02,30,08,00,00,00,C0,4F,
23350870,00000266,false,Rx,0,8,8C,05,00,00,04,04,03,00,
23351075,00000118,false,Rx,0,8,37,0D,F0,20,00,00,01,00,
23355044,00000154,false,Rx,0,8,02,30,08,00,00,00,E0,6F,
23360854,00000266,false,Rx,0,8,8C,07,00,00,04,04,03,00,
23361059,00000118,false,Rx,0,8,38,0E,F0,20,00,00,01,00,
23365108,00000154,false,Rx,0,8,02,30,08,00,00,00,00,8F,
23370844,00000266,false,Rx,0,8,8C,04,00,00,04,04,03,00,
23371047,00000118,false,Rx,0,8,39,0F,F0,20,00,00,01,00,
23371256,00000126,false,Rx,0,3,00,08,00,00,00,00,00,00,
23371458,000001D6,false,Rx,0,5,D0,C8,05,08,00,00,00,00,
23371577,00000268,false,Rx,0,5,04,04,FF,01,FF,00,00,00,
23371862,00000396,false,Rx,0,8,F7,FF,FF,28,FF,FF,FF,FF,
23375084,00000154,false,Rx,0,8,02,30,08,00,00,00,20,AF,
23380892,00000266,false,Rx,0,8,8C,05,00,00,06,06,05,00,
23381099,00000118,false,Rx,0,8,2A,00,F0,20,00,00,01,00,
23385078,00000154,false,Rx,0,8,02,30,08,00,00,00,40,CF,
23390815,00000266,false,Rx,0,8,8C,04,00,00,03,03,02,00,
23391102,00000118,false,Rx,0,8,2B,01,F0,20,00,00,01,00,
23395076,00000154,false,Rx,0,8,02,30,08,00,00,00,60,EF,
23402261,00000266,false,Rx,0,8,8C,07,00,00,02,02,01,00,
23402349,00000118,false,Rx,0,8,2C,02,F0,20,00,00,01,00,
23405059,00000154,false,Rx,0,8,02,30,08,00,00,00,80,0F,
23410910,00000266,false,Rx,0,8,8C,04,00,00,02,02,01,00,
23411113,00000118,false,Rx,0,8,2D,03,F0,20,00,00,01,00,
23415090,00000154,false,Rx,0,8,02,30,08,00,00,00,A0,2F,
23420896,00000266,false,Rx,0,8,8C,09,00,00,01,01,00,00,
23421191,00000118,false,Rx,0,8,2E,04,F0,20,00,00,01,00,
23425070,00000154,false,Rx,0,8,02,30,08,00,00,00,C0,4F,
23431046,00000266,false,Rx,0,8,8C,04,00,00,04,04,03,00,
23431256,00000118,false,Rx,0,8,2F,05,F0,20,00,00,01,00,
23435050,00000154,false,Rx,0,8,02,30,08,00,00,00,E0,6F,
23441112,00000266,false,Rx,0,8,8C,0A,00,00,01,01,00,00,
23441323,00000118,false,Rx,0,8,30,06,F0,20,00,00,01,00,
23445035,00000154,false,Rx,0,8,02,30,08,00,00,00,00,8F,
23451095,00000266,false,Rx,0,8,8C,04,00,00,02,02,01,00,
23451307,00000118,false,Rx,0,8,31,07,F0,20,00,00,01,00,
23455056,00000154,false,Rx,0,8,02,30,08,00,00,00,20,AF,
23461115,00000266,false,Rx,0,8,8C,04,00,00,01,01,00,00,
23461326,00000118,false,Rx,0,8,32,08,F0,20,00,00,01,00,
23465050,00000154,false,Rx,0,8,02,30,08,00,00,00,40,CF,
23470862,00000266,false,Rx,0,8,8C,04,00,00,03,03,02,00,
23471066,00000118,false,Rx,0,8,33,09,F0,20,00,00,01,00,
23471276,00000126,false,Rx,0,3,00,08,00,00,00,00,00,00,
23471395,000001D6,false,Rx,0,5,D0,C8,05,08,00,00,00,00,
23471597,00000268,false,Rx,0,5,03,03,FF,01,FF,00,00,00,
23471882,00000396,false,Rx,0,8,F7,FF,FF,28,FF,FF,FF,FF,
23475018,00000154,false,Rx,0,8,02,30,08,00,00,00,60,EF,
23480830,00000266,false,Rx,0,8,8D,08,00,00,03,03,02,00,
23481117,00000118,false,Rx,0,8,34,0A,F0,20,00,00,01,00,
23485097,00000154,false,Rx,0,8,02,30,08,00,00,00,80,0F,
23490836,00000266,false,Rx,0,8,8C,04,00,00,03,03,02,00,
23491040,00000118,false,Rx,0,8,35,0B,F0,20,00,00,01,00,
23495096,00000154,false,Rx,0,8,02,30,08,00,00,00,A0,2F,
23500824,00000266,false,Rx,0,8,8C,04,00,00,02,02,01,00,
23501111,00000118,false,Rx,0,8,36,0C,F0,20,00,00,01,00,
23506882,00000154,false,Rx,0,8,02,30,08,00,00,00,C0,4F,
23510854,00000266,false,Rx,0,8,8C,04,00,00,01,01,00,00,
23511086,00000118,false,Rx,0,8,37,0D,F0,20,00,00,01,00,
23515086,00000154,false,Rx,0,8,02,30,08,00,00,00,E0,6F,
23520810,00000266,false,Rx,0,8,8C,0B,00,00,04,04,03,00,
23521097,00000118,false,Rx,0,8,38,0E,F0,20,00,00,01,00,
23525066,00000154,false,Rx,0,8,02,30,08,00,00,00,00,8F,
23530791,00000266,false,Rx,0,8,8C,06,00,00,04,04,03,00,
23531079,00000118,false,Rx,0,8,39,0F,F0,20,00,00,01,00,
23535048,00000154,false,Rx,0,8,02,30,08,00,00,00,20,AF,
23540804,00000266,false,Rx,0,8,8C,04,00,00,02,02,01,00,
23541093,00000118,false,Rx,0,8,2A,00,F0,20,00,00,01,00,
23545059,00000154,false,Rx,0,8,02,30,08,00,00,00,40,CF,
23550780,00000266,false,Rx,0,8,8C,07,00,00,04,04,03,00,
23551067,00000118,false,Rx,0,8,2B,01,F0,20,00,00,01,00,
23555035,00000154,false,Rx,0,8,02,30,08,00,00,00,60,EF,
23560871,00000266,false,Rx,0,8,8D,0F,00,00,03,03,02,00,
23561076,00000118,false,Rx,0,8,2C,02,F0,20,00,00,01,00,
23565044,00000154,false,Rx,0,8,02,30,08,00,00,00,80,0F,
23570859,00000266,false,Rx,0,8,8C,08,00,00,02,02,01,00,
23571152,00000118,false,Rx,0,8,2D,03,F0,20,00,00,01,00,
23571270,00000126,false,Rx,0,3,00,08,00,00,00,00,00,00,
23571471,000001D6,false,Rx,0,5,D0,C8,05,08,00,00,00,00,
23571673,00000268,false,Rx,0,5,02,02,FF,01,FF,00,00,00,
23571961,00000396,false,Rx,0,8,F7,FF,FF,28,FF,FF,FF,FF,
23575013,00000154,false,Rx,0,8,02,30,08,00,00,00,A0,2F,
23580907,00000266,false,Rx,0,8,8C,04,00,00,03,03,02,00,
23581201,00000118,false,Rx,0,8,2E,04,F0,20,00,00,01,00,
23585009,00000154,false,Rx,0,8,02,30,08,00,00,00,C0,4F,
23591032,00000266,false,Rx,0,8,8C,06,00,00,01,01,00,00,
23591243,00000118,false,Rx,0,8,2F,05,F0,20,00,00,01,00,
23595037,00000154,false,Rx,0,8,02,30,08,00,00,00,E0,6F,
23601101,00000266,false,Rx,0,8,8C,04,00,00,02,02,01,00,
23601312,00000118,false,Rx,0,8,30,06,F0,20,00,00,01,00,
23605025,00000154,false,Rx,0,8,02,30,08,00,00,00,00,8F,
23611548,00000266,false,Rx,0,8,8D,08,00,00,02,02,01,00,
23611636,00000118,false,Rx,0,8,31,07,F0,20,00,00,01,00,
23615049,00000154,false,Rx,0,8,02,30,08,00,00,00,20,AF,
23621034,00000266,false,Rx,0,8,8C,0A,00,00,02,02,01,00,
23621327,00000118,false,Rx,0,8,32,08,F0,20,00,00,01,00,
23625038,00000154,false,Rx,0,8,02,30,08,00,00,00,40,CF,
23630852,00000266,false,Rx,0,8,8D,06,00,00,01,01,00,00,
23631055,00000118,false,Rx,0,8,33,09,F0,20,00,00,01,00,
23635025,00000154,false,Rx,0,8,02,30,08,00,00,00,60,EF,
23640844,00000266,false,Rx,0,8,8C,04,00,00,03,03,02,00,
23641048,00000118,false,Rx,0,8,34,0A,F0,20,00,00,01,00,
23645023,00000154,false,Rx,0,8,02,30,08,00,00,00,80,0F,
23650838,00000266,false,Rx,0,8,8C,06,00,00,05,05,04,00,
23651041,00000118,false,Rx,0,8,35,0B,F0,20,00,00,01,00,
23655098,00000154,false,Rx,0,8,02,30,08,00,00,00,A0,2F,
23660824,00000266,false,Rx,0,8,8C,09,00,00,03,03,02,00,
23661028,00000118,false,Rx,0,8,36,0C,F0,20,00,00,01,00,
23665031,00000154,false,Rx,0,8,02,30,08,00,00,00,C0,4F,
23670851,00000266,false,Rx,0,8,8C,04,00,00,02,02,01,00,
23671055,00000118,false,Rx,0,8,37,0D,F0,20,00,00,01,00,
23671258,00000126,false,Rx,0,3,00,08,00,00,00,00,00,00,
23671376,000001D6,false,Rx,0,5,D0,C8,05,08,00,00,00,00,
23671578,00000268,false,Rx,0,5,02,02,FF,01,FF,00,00,00,
23671863,00000396,false,Rx,0,8,F7,FF,FF,28,FF,FF,FF,FF,
23675001,00000154,false,Rx,0,8,02,30,08,00,00,00,E0,6F,
23680810,00000266,false,Rx,0,8,8C,05,00,00,02,02,01,00,
23681015,00000118,false,Rx,0,8,38,0E,F0,20,00,00,01,00,
23684996,00000154,false,Rx,0,8,02,30,08,00,00,00,00,8F,
23690816,00000266,false,Rx,0,8,8C,18,00,00,01,01,00,00,
23691020,00000118,false,Rx,0,8,39,0F,F0,20,00,00,01,00,
23694993,00000154,false,Rx,0,8,02,30,08,00,00,00,20,AF,
23700799,00000266,false,Rx,0,8,8C,06,00,00,01,01,00,00,
23701087,00000118,false,Rx,0,8,2A,00,F0,20,00,00,01,00,
23705054,00000154,false,Rx,0,8,02,30,08,00,00,00,40,CF,
23710779,00000266,false,Rx,0,8,8C,0E,00,00,04,04,03,00,
23711065,00000118,false,Rx,0,8,2B,01,F0,20,00,00,01,00,
23716178,00000154,false,Rx,0,8,02,30,08,00,00,00,60,EF,
23720821,00000266,false,Rx,0,8,8C,0B,00,00,03,03,02,00,
23721024,00000118,false,Rx,0,8,2C,02,F0,20,00,00,01,00,
23724996,00000154,false,Rx,0,8,02,30,08,00,00,00,80,0F,
23730887,00000266,false,Rx,0,8,8C,09,00,00,04,04,03,00,
23731092,00000118,false,Rx,0,8,2D,03,F0,20,00,00,01,00,
23735060,00000154,false,Rx,0,8,02,30,08,00,00,00,A0,2F,
23740951,00000266,false,Rx,0,8,8C,06,00,00,02,02,01,00,
23741162,00000118,false,Rx,0,8,2E,04,F0,20,00,00,01,00,
23745039,00000154,false,Rx,0,8,02,30,08,00,00,00,C0,4F,
23751023,00000266,false,Rx,0,8,8C,04,00,00,03,03,02,00,
23751232,00000118,false,Rx,0,8,2F,05,F0,20,00,00,01,00,
23755025,00000154,false,Rx,0,8,02,30,08,00,00,00,E0,6F,
23761013,00000266,false,Rx,0,8,8C,0A,00,00,05,05,04,00,
23761307,00000118,false,Rx,0,8,30,06,F0,20,00,00,01,00,
23765022,00000154,false,Rx,0,8,02,30,08,00,00,00,00,8F,
23771022,00000266,false,Rx,0,8,8C,04,00,00,03,03,02,00,
23771232,00000118,false,Rx,0,8,31,07,F0,20,00,00,01,00,
23771434,00000126,false,Rx,0,3,00,08,00,00,00,00,00,00,
23771635,000001D6,false,Rx,0,5,D0,C8,05,08,00,00,00,00,
23771754,00000268,false,Rx,0,5,05,05,FF,01,FF,00,00,00,
23772041,00000396,false,Rx,0,8,F7,FF,FF,28,FF,FF,FF,FF,
23775007,00000154,false,Rx,0,8,02,30,08,00,00,00,20,AF,
23781065,00000266,false,Rx,0,8,8D,15,00,00,05,05,04,00,
23781275,00000118,false,Rx,0,8,32,08,F0,20,00,00,01,00,
23784999,00000154,false,Rx,0,8,02,30,08,00,00,00,40,CF,
23790767,00000266,false,Rx,0,8,8C,07,00,00,01,01,00,00,
23791055,00000118,false,Rx,0,8,33,09,F0,20,00,00,01,00,
23795024,00000154,false,Rx,0,8,02,30,08,00,00,00,60,EF,
23800754,00000266,false,Rx,0,8,8D,05,00,00,06,06,05,00,
23801041,00000118,false,Rx,0,8,34,0A,F0,20,00,00,01,00,
23805015,00000154,false,Rx,0,8,02,30,08,00,00,00,80,0F,
23810824,00000266,false,Rx,0,8,8D,06,00,00,03,03,02,00,
23811028,00000118,false,Rx,0,8,35,0B,F0,20,00,00,01,00,
23815084,00000154,false,Rx,0,8,02,30,08,00,00,00,A0,2F,
23820780,00000266,false,Rx,0,8,8C,07,00,00,02,02,01,00,
23821067,00000118,false,Rx,0,8,36,0C,F0,20,00,00,01,00,
23825038,00000154,false,Rx,0,8,02,30,08,00,00,00,C0,4F,
23830768,00000266,false,Rx,0,8,8C,07,00,00,02,02,01,00,
23831056,00000118,false,Rx,0,8,37,0D,F0,20,00,00,01,00,
23835027,00000154,false,Rx,0,8,02,30,08,00,00,00,E0,6F,
23840761,00000266,false,Rx,0,8,8C,04,00,00,05,05,04,00,
23841048,00000118,false,Rx,0,8,38,0E,F0,20,00,00,01,00,
23845025,00000154,false,Rx,0,8,02,30,08,00,00,00,00,8F,
23850755,00000266,false,Rx,0,8,8C,04,00,00,04,04,03,00,
23851042,00000118,false,Rx,0,8,39,0F,F0,20,00,00,01,00,
23855017,00000154,false,Rx,0,8,02,30,08,00,00,00,20,AF,
23860830,00000266,false,Rx,0,8,8C,04,00,00,02,02,01,00,
23861034,00000118,false,Rx,0,8,2A,00,F0,20,00,00,01,00,
23865019,00000154,false,Rx,0,8,02,30,08,00,00,00,40,CF,
23872358,00000266,false,Rx,0,8,8C,04,00,00,02,02,01,00,
23872447,00000118,false,Rx,0,8,2B,01,F0,20,00,00,01,00,
23872534,00000126,false,Rx,0,3,00,08,00,00,00,00,00,00,
23872620,000001D6,false,Rx,0,5,D0,C8,05,08,00,00,00,00,
23872707,00000268,false,Rx,0,5,02,02,FF,01,FF,00,00,00,
23872794,00000396,false,Rx,0,8,F7,FF,FF,28,FF,FF,FF,FF,
23875007,00000154,false,Rx,0,8,02,30,08,00,00,00,60,EF,
23880814,00000266,false,Rx,0,8,8C,05,00,00,02,02,01,00,
23881018,00000118,false,Rx,0,8,2C,02,F0,20,00,00,01,00,
23884996,00000154,false,Rx,0,8,02,30,08,00,00,00,80,0F,
23890898,00000266,false,Rx,0,8,8C,04,00,00,02,02,01,00,
23891103,00000118,false,Rx,0,8,2D,03,F0,20,00,00,01,00,
23894996,00000154,false,Rx,0,8,02,30,08,00,00,00,A0,2F,
23900971,00000266,false,Rx,0,8,8C,04,00,00,01,01,00,00,
23901180,00000118,false,Rx,0,8,2E,04,F0,20,00,00,01,00,
23904977,00000154,false,Rx,0,8,02,30,08,00,00,00,C0,4F,
23911035,00000266,false,Rx,0,8,8C,08,00,00,05,05,04,00,
23911245,00000118,false,Rx,0,8,2F,05,F0,20,00,00,01,00,
