Time Stamp,ID,Extended,Dir,Bus,LEN,D1,D2,D3,D4,D5,D6,D7,D8
2469269,00000240,false,Rx,0,2,72,30,00,00,00,00,00,00,
2479277,00000240,false,Rx,0,2,73,31,00,00,00,00,00,00,
2485178,00000118,false,Rx,0,8,22,00,E8,20,00,00,01,00,
2485381,00000108,false,Rx,0,8,89,00,00,00,00,00,80,00,
2485583,00000136,false,Rx,0,8,00,C0,00,80,FF,07,00,7D,
2485785,00000142,false,Rx,0,5,43,00,00,00,00,00,00,00,
2486072,00000148,false,Rx,0,8,60,00,00,00,13,00,04,00,
2486282,00000206,false,Rx,0,8,00,00,00,00,00,00,00,08,
2486567,00000119,false,Rx,0,8,4E,00,40,00,04,00,00,F0,
2486769,0000011A,false,Rx,0,8,5F,00,40,00,04,00,00,00,
2487056,000007F6,false,Rx,0,8,E0,DE,BD,7B,F7,70,71,61,
2487266,000007F6,false,Rx,0,8,01,00,00,00,F4,EB,7F,03,
2487468,000007F6,false,Rx,0,8,42,4F,4F,4F,4F,7F,BF,EC,
2487754,000007F6,false,Rx,0,8,03,C3,C3,C3,7A,7A,7A,7A,
2487958,000007F6,false,Rx,0,8,44,4F,4F,4F,2F,7B,F6,EC,
2488168,000007F6,false,Rx,0,8,05,FD,E8,A7,9F,FE,61,C3,
2488369,000007F6,false,Rx,0,8,46,4F,4F,4F,0F,E8,07,FD,
2488655,000007F6,false,Rx,0,8,27,E0,10,D0,0F,F0,01,C3,
2488857,000007F6,false,Rx,0,8,48,BF,7E,3D,3D,3D,BD,EC,
2489154,000007F6,false,Rx,0,8,09,FD,FA,FB,FB,B3,03,00,
2489357,000007F6,false,Rx,0,8,2A,7B,F6,EC,D9,B3,CB,0E,
2489559,000007F6,false,Rx,0,8,0B,F8,FD,FC,FC,FF,FF,FF,
2489845,000007F6,false,Rx,0,8,0C,B2,7F,BF,EF,27,14,02,
2490047,000007F6,false,Rx,0,8,4D,28,04,A1,50,28,F4,7F,
2490339,000007F6,false,Rx,0,8,0E,00,D0,0F,00,00,00,00,
2495147,00000118,false,Rx,0,8,23,01,E8,20,00,00,01,00,
2495349,00000108,false,Rx,0,8,8A,01,00,00,00,00,80,00,
2495635,00000136,false,Rx,0,8,00,C0,00,80,FF,17,00,8D,
2495754,00000256,false,Rx,0,4,D8,80,00,00,00,00,00,00,
2495957,00000142,false,Rx,0,5,44,01,00,00,00,00,00,00,
2496248,00000286,false,Rx,0,7,85,00,00,01,00,FC,00,00,
2496451,00000148,false,Rx,0,8,61,01,00,00,13,00,04,00,
2496739,00000206,false,Rx,0,8,00,00,00,00,00,00,10,18,
2496944,00000119,false,Rx,0,8,4F,01,40,00,04,00,00,F0,
2497154,0000011A,false,Rx,0,8,60,01,40,00,04,00,00,00,
2499280,00000240,false,Rx,0,2,74,32,00,00,00,00,00,00,
2505109,00000118,false,Rx,0,8,24,02,E8,20,00,00,01,00,
2505402,00000745,false,Rx,0,8,00,00,00,00,00,00,00,00,
2505604,00000108,false,Rx,0,8,05,02,00,00,00,23,D7,00,
2505889,00000745,false,Rx,0,8,01,00,00,00,00,00,00,00,
2506094,00000136,false,Rx,0,8,00,C0,00,80,FF,27,00,9D,
2506387,00000745,false,Rx,0,8,02,00,00,00,00,00,00,00,
2506588,00000142,false,Rx,0,5,45,02,00,00,00,00,00,00,
2506791,00000745,false,Rx,0,8,03,00,00,F0,DE,7B,EF,01,
2507078,00000745,false,Rx,0,8,04,00,00,00,00,00,00,00,
2507288,00000745,false,Rx,0,8,05,00,00,00,00,00,B4,B4,
2507490,00000745,false,Rx,0,8,06,B4,B4,00,00,00,00,00,
2515135,00000118,false,Rx,0,8,25,03,E8,20,00,00,01,00,
2515344,00000108,false,Rx,0,8,D6,03,00,00,00,DA,F0,00,
2515629,00000136,false,Rx,0,8,00,C0,00,80,FF,37,00,AD,
2515748,00000142,false,Rx,0,5,46,03,00,00,00,00,00,00,
2516035,00000148,false,Rx,0,8,62,02,00,00,13,00,04,00,
2516247,00000206,false,Rx,0,8,00,00,00,00,00,00,20,28,
2516533,00000119,false,Rx,0,8,50,02,40,00,04,00,00,F0,
2516736,0000011A,false,Rx,0,8,61,02,40,00,04,00,00,00,
2519285,00000240,false,Rx,0,2,75,33,00,00,00,00,00,00,
2528746,00000118,false,Rx,0,8,26,04,E8,20,00,00,01,00,
2528834,00000108,false,Rx,0,8,6D,04,00,00,00,5E,02,00,
2528921,00000136,false,Rx,0,8,00,C0,00,80,FF,47,00,BD,
2529010,00000142,false,Rx,0,5,47,04,00,00,00,00,00,00,
2535076,00000118,false,Rx,0,8,27,05,E8,20,00,00,01,00,
2535369,00000108,false,Rx,0,8,56,05,00,00,00,58,F0,00,
2535572,00000136,false,Rx,0,8,00,C0,00,80,FF,57,00,CD,
2535774,00000142,false,Rx,0,5,48,05,00,00,00,00,00,00,
2535980,00000148,false,Rx,0,8,63,03,00,00,13,00,04,00,
2536273,00000206,false,Rx,0,8,00,00,00,00,00,00,30,38,
2536475,00000119,false,Rx,0,8,51,03,40,00,04,00,00,F0,
2536760,0000011A,false,Rx,0,8,62,03,40,00,04,00,00,00,
2539227,00000240,false,Rx,0,2,76,34,00,00,00,00,00,00,
2545076,00000118,false,Rx,0,8,28,06,E8,20,00,00,01,00,
2545369,00000108,false,Rx,0,8,5C,06,00,00,00,55,F8,00,
2545571,00000136,false,Rx,0,8,00,C0,00,80,FF,67,00,DD,
2545773,00000142,false,Rx,0,5,49,06,00,00,00,00,00,00,
2555077,00000118,false,Rx,0,8,29,07,E8,20,00,00,01,00,
2555370,00000108,false,Rx,0,8,7B,07,00,00,00,61,0A,00,
2555572,00000136,false,Rx,0,8,00,C0,00,80,FF,77,00,ED,
2555774,00000142,false,Rx,0,5,4A,07,00,00,00,00,00,00,
2555980,00000148,false,Rx,0,8,64,04,00,00,13,00,04,00,
2556273,00000206,false,Rx,0,8,00,00,00,00,00,00,40,48,
2556475,00000119,false,Rx,0,8,52,04,40,00,04,00,00,F0,
2556761,0000011A,false,Rx,0,8,63,04,40,00,04,00,00,00,
2559230,00000240,false,Rx,0,2,77,35,00,00,00,00,00,00,
2565116,00000118,false,Rx,0,8,2A,08,E8,20,00,00,01,00,
2565326,00000108,false,Rx,0,8,9E,08,00,00,00,AC,E1,00,
2565612,00000136,false,Rx,0,8,00,C0,00,80,FF,87,00,FD,
2565814,00000142,false,Rx,0,5,4B,08,00,00,00,00,00,00,
2575135,00000118,false,Rx,0,8,2B,09,E8,20,00,00,01,00,
2575345,00000108,false,Rx,0,8,23,09,00,00,00,11,00,00,
2575547,00000136,false,Rx,0,8,00,C0,00,80,FF,97,00,0D,
2575749,00000142,false,Rx,0,5,4C,09,00,00,00,00,00,00,
2576036,00000148,false,Rx,0,8,65,05,00,00,13,00,04,00,
2576247,00000206,false,Rx,0,8,00,00,00,00,00,00,50,58,
2576532,00000119,false,Rx,0,8,53,05,40,00,04,00,00,F0,
2576735,0000011A,false,Rx,0,8,64,05,40,00,04,00,00,00,
2584810,00000240,false,Rx,0,2,78,36,00,00,00,00,00,00,
2585098,00000118,false,Rx,0,8,2C,0A,E8,20,00,00,01,00,
2585391,00000108,false,Rx,0,8,26,0A,00,00,00,FA,19,00,
2585593,00000136,false,Rx,0,8,00,C0,00,80,FF,A7,00,1D,
2585796,00000142,false,Rx,0,5,4D,0A,00,00,00,00,00,00,
2595118,00000118,false,Rx,0,8,2D,0B,E8,20,00,00,01,00,
2595329,00000256,false,Rx,0,4,D9,81,00,00,00,00,00,00,
2595531,00000108,false,Rx,0,8,B0,0B,00,00,00,9F,FD,00,
2595816,00000286,false,Rx,0,7,86,01,00,01,00,FC,00,00,
2596020,00000136,false,Rx,0,8,00,C0,00,80,FF,B7,00,2D,
2596230,00000142,false,Rx,0,5,4E,0B,00,00,00,00,00,00,
2596432,00000148,false,Rx,0,8,66,06,00,00,13,00,04,00,
2596718,00000206,false,Rx,0,8,00,00,00,00,00,00,60,68,
2596920,00000119,false,Rx,0,8,54,06,40,00,04,00,00,F0,
2597214,0000011A,false,Rx,0,8,65,06,40,00,04,00,00,00,
2599262,00000240,false,Rx,0,2,79,37,00,00,00,00,00,00,
2605244,00000118,false,Rx,0,8,2E,0C,E8,20,00,00,01,00,
2605446,00000108,false,Rx,0,8,E6,0C,00,00,00,CF,02,00,
2605732,00000136,false,Rx,0,8,00,C0,00,80,FF,C7,00,3D,
2605935,00000142,false,Rx,0,5,4F,0C,00,00,00,00,00,00,
2615270,00000118,false,Rx,0,8,2F,0D,E8,20,00,00,01,00,
2615556,00000108,false,Rx,0,8,A4,0D,00,00,00,8B,03,00,
2615758,00000136,false,Rx,0,8,00,C0,00,80,FF,D7,00,4D,
2615963,00000142,false,Rx,0,5,50,0D,00,00,00,00,00,00,
2616249,00000148,false,Rx,0,8,67,07,00,00,13,00,04,00,
2616452,00000206,false,Rx,0,8,00,00,00,00,00,00,70,78,
2616736,00000119,false,Rx,0,8,55,07,40,00,04,00,00,F0,
2616941,0000011A,false,Rx,0,8,66,07,40,00,04,00,00,00,
2619244,00000240,false,Rx,0,2,7A,38,00,00,00,00,00,00,
2625306,00000118,false,Rx,0,8,30,0E,E8,20,00,00,01,00,
2625509,00000108,false,Rx,0,8,65,0E,00,00,00,52,FC,00,
2625794,00000136,false,Rx,0,8,00,C0,00,80,FF,E7,00,5D,
2625998,00000142,false,Rx,0,5,51,0E,00,00,00,00,00,00,
2639821,00000118,false,Rx,0,8,31,0F,E8,20,00,00,01,00,
2639909,00000108,false,Rx,0,8,07,0F,00,00,00,F4,FB,00,
2639998,00000136,false,Rx,0,8,00,C0,00,80,FF,F7,00,6D,
2640085,00000142,false,Rx,0,5,52,0F,00,00,00,00,00,00,
2640179,00000148,false,Rx,0,8,68,08,00,00,13,00,04,00,
2640266,00000206,false,Rx,0,8,00,00,00,00,00,00,80,88,
2640353,00000119,false,Rx,0,8,56,08,40,00,04,00,00,F0,
2640440,0000011A,false,Rx,0,8,67,08,40,00,04,00,00,00,
2640527,00000240,false,Rx,0,2,7B,39,00,00,00,00,00,00,
2645119,00000118,false,Rx,0,8,22,00,E8,20,00,00,01,00,
2645330,00000108,false,Rx,0,8,66,00,00,00,00,48,15,00,
2645616,00000136,false,Rx,0,8,00,C0,00,80,FF,07,00,7D,
2645818,00000142,false,Rx,0,5,43,00,00,00,00,00,00,00,
2655082,00000118,false,Rx,0,8,23,01,E8,20,00,00,01,00,
2655375,00000108,false,Rx,0,8,A0,01,00,00,00,94,02,00,
2655577,00000136,false,Rx,0,8,00,C0,00,80,FF,17,00,8D,
2655779,00000142,false,Rx,0,5,44,01,00,00,00,00,00,00,
2655985,00000148,false,Rx,0,8,69,09,00,00,13,00,04,00,
2656279,00000206,false,Rx,0,8,00,00,00,00,00,00,90,98,
2656482,00000119,false,Rx,0,8,57,09,40,00,04,00,00,F0,
2656767,0000011A,false,Rx,0,8,68,09,40,00,04,00,00,00,
2659236,00000240,false,Rx,0,2,7C,3A,00,00,00,00,00,00,
2665121,00000118,false,Rx,0,8,24,02,E8,20,00,00,01,00,
2665332,00000108,false,Rx,0,8,F7,02,00,00,00,EF,FD,00,
2665617,00000136,false,Rx,0,8,00,C0,00,80,FF,27,00,9D,
2665820,00000142,false,Rx,0,5,45,02,00,00,00,00,00,00,
2675062,00000118,false,Rx,0,8,25,03,E8,20,00,00,01,00,
2675356,00000108,false,Rx,0,8,B3,03,00,00,00,AF,F8,00,
2675558,00000136,false,Rx,0,8,00,C0,00,80,FF,37,00,AD,
2675760,00000142,false,Rx,0,5,46,03,00,00,00,00,00,00,
2676047,00000148,false,Rx,0,8,6A,0A,00,00,13,00,04,00,
2676257,00000206,false,Rx,0,8,00,00,00,00,00,00,A0,A8,
2676542,00000119,false,Rx,0,8,58,0A,40,00,04,00,00,F0,
2676745,0000011A,false,Rx,0,8,69,0A,40,00,04,00,00,00,
2679211,00000240,false,Rx,0,2,7D,3B,00,00,00,00,00,00,
2685101,00000118,false,Rx,0,8,26,04,E8,20,00,00,01,00,
2685394,00000108,false,Rx,0,8,1E,04,00,00,00,0D,04,00,
2685597,00000136,false,Rx,0,8,00,C0,00,80,FF,47,00,BD,
2685799,00000142,false,Rx,0,5,47,04,00,00,00,00,00,00,
2696014,00000118,false,Rx,0,8,27,05,E8,20,00,00,01,00,
2696135,00000256,false,Rx,0,4,5A,02,00,00,00,00,00,00,
2696229,00000108,false,Rx,0,8,4F,05,00,00,00,46,FB,00,
2696316,00000286,false,Rx,0,7,87,02,00,01,00,FC,00,00,
2696435,00000136,false,Rx,0,8,00,C0,00,80,FF,57,00,CD,
2696522,00000142,false,Rx,0,5,48,05,00,00,00,00,00,00,
2696642,00000148,false,Rx,0,8,6B,0B,00,00,13,00,04,00,
2696729,00000206,false,Rx,0,8,00,00,00,00,00,00,B0,B8,
2696849,00000119,false,Rx,0,8,59,0B,40,00,04,00,00,F0,
2697135,0000011A,false,Rx,0,8,6A,0B,40,00,04,00,00,00,
2699269,00000240,false,Rx,0,2,7E,3C,00,00,00,00,00,00,
2705075,00000118,false,Rx,0,8,28,06,E8,20,00,00,01,00,
2705368,00000108,false,Rx,0,8,9A,06,00,00,00,8D,FE,00,
2705570,00000136,false,Rx,0,8,00,C0,00,80,FF,67,00,DD,
2705773,00000142,false,Rx,0,5,49,06,00,00,00,00,00,00,
2715101,00000118,false,Rx,0,8,29,07,E8,20,00,00,01,00,
2715311,00000108,false,Rx,0,8,67,07,00,00,00,5B,FC,00,
2715597,00000136,false,Rx,0,8,00,C0,00,80,FF,77,00,ED,
2715798,00000142,false,Rx,0,5,4A,07,00,00,00,00,00,00,
2716002,00000148,false,Rx,0,8,6C,0C,00,00,13,00,04,00,
2716294,00000206,false,Rx,0,8,00,00,00,00,00,00,C0,C8,
2716497,00000119,false,Rx,0,8,5A,0C,40,00,04,00,00,F0,
2716782,0000011A,false,Rx,0,8,6B,0C,40,00,04,00,00,00,
2719255,00000240,false,Rx,0,2,7F,3D,00,00,00,00,00,00,
2725059,00000118,false,Rx,0,8,2A,08,E8,20,00,00,01,00,
2725352,00000108,false,Rx,0,8,8E,08,00,00,00,7A,03,00,
2725555,00000136,false,Rx,0,8,00,C0,00,80,FF,87,00,FD,
2725757,00000142,false,Rx,0,5,4B,08,00,00,00,00,00,00,
2735088,00000118,false,Rx,0,8,2B,09,E8,20,00,00,01,00,
2735299,00000108,false,Rx,0,8,8E,09,00,00,00,84,F8,00,
2735584,00000136,false,Rx,0,8,00,C0,00,80,FF,97,00,0D,
2735786,00000142,false,Rx,0,5,4C,09,00,00,00,00,00,00,
2735988,00000148,false,Rx,0,8,6D,0D,00,00,13,00,04,00,
2736199,00000206,false,Rx,0,8,00,00,00,00,00,00,D0,D8,
2736484,00000119,false,Rx,0,8,5B,0D,40,00,04,00,00,F0,
2736687,0000011A,false,Rx,0,8,6C,0D,40,00,04,00,00,00,
2739241,00000240,false,Rx,0,2,80,3E,00,00,00,00,00,00,
2745070,00000118,false,Rx,0,8,2C,0A,E8,20,00,00,01,00,
2745364,00000108,false,Rx,0,8,23,0A,00,00,00,2D,E3,00,
2745566,00000136,false,Rx,0,8,00,C0,00,80,FF,A7,00,1D,
2745768,00000142,false,Rx,0,5,4D,0A,00,00,00,00,00,00,
2755185,00000118,false,Rx,0,8,2D,0B,E8,20,00,00,01,00,
2755387,00000108,false,Rx,0,8,E3,0B,00,00,00,CE,01,00,
2755673,00000136,false,Rx,0,8,00,C0,00,80,FF,B7,00,2D,
2755792,00000142,false,Rx,0,5,4E,0B,00,00,00,00,00,00,
2756078,00000148,false,Rx,0,8,6E,0E,00,00,13,00,04,00,
2756288,00000206,false,Rx,0,8,00,00,00,00,00,00,E0,E8,
2756574,00000119,false,Rx,0,8,5C,0E,40,00,04,00,00,F0,
2756776,0000011A,false,Rx,0,8,6D,0E,40,00,04,00,00,00,
2759191,00000240,false,Rx,0,2,81,3F,00,00,00,00,00,00,
2765256,00000118,false,Rx,0,8,2E,0C,E8,20,00,00,01,00,
2765458,00000108,false,Rx,0,8,08,0C,00,00,00,F9,FA,00,
2765743,00000136,false,Rx,0,8,00,C0,00,80,FF,C7,00,3D,
2765950,00000142,false,Rx,0,5,4F,0C,00,00,00,00,00,00,
2775281,00000118,false,Rx,0,8,2F,0D,E8,20,00,00,01,00,
2775565,00000108,false,Rx,0,8,7F,0D,00,00,00,6E,FB,00,
2775768,00000136,false,Rx,0,8,00,C0,00,80,FF,D7,00,4D,
2775972,00000142,false,Rx,0,5,50,0D,00,00,00,00,00,00,
2776181,00000148,false,Rx,0,8,6F,0F,00,00,13,00,04,00,
2776467,00000206,false,Rx,0,8,00,00,00,00,00,00,F0,F8,
2776668,00000119,false,Rx,0,8,5D,0F,40,00,04,00,00,F0,
2776956,0000011A,false,Rx,0,8,6E,0F,40,00,04,00,00,00,
2779261,00000240,false,Rx,0,2,72,30,00,00,00,00,00,00,
2785325,00000118,false,Rx,0,8,38,0E,F0,20,00,00,01,00,
2785528,00000108,false,Rx,0,8,56,0E,00,00,00,3E,01,00,
2785814,00000136,false,Rx,0,8,00,C0,00,80,FF,E7,00,5D,
2786017,00000142,false,Rx,0,5,51,0E,00,00,00,00,00,00,
2795270,00000118,false,Rx,0,8,39,0F,F0,20,00,00,01,00,
2795473,00000256,false,Rx,0,4,DB,83,00,00,00,00,00,00,
2795675,00000108,false,Rx,0,8,A7,0F,00,00,00,A2,ED,00,
2795961,00000286,false,Rx,0,7,88,03,00,01,00,FC,00,00,
2796171,00000136,false,Rx,0,8,00,C0,00,80,FF,F7,00,6D,
2796373,00000142,false,Rx,0,5,52,0F,00,00,00,00,00,00,
2796575,00000148,false,Rx,0,8,60,00,00,00,13,00,04,00,
2796860,00000206,false,Rx,0,8,00,00,00,00,00,00,00,08,
2797065,00000119,false,Rx,0,8,4E,00,40,00,04,00,00,F0,
2797359,0000011A,false,Rx,0,8,5F,00,40,00,04,00,00,00,
2799238,00000240,false,Rx,0,2,73,31,00,00,00,00,00,00,
2808342,00000118,false,Rx,0,8,2A,00,F0,20,00,00,01,00,
2808430,00000108,false,Rx,0,8,64,00,00,00,00,62,F9,00,
2808517,00000136,false,Rx,0,8,00,C0,00,80,FF,07,00,7D,
2808604,00000142,false,Rx,0,5,43,00,00,00,00,00,00,00,
2815091,00000118,false,Rx,0,8,2B,01,F0,20,00,00,01,00,
2815302,00000108,false,Rx,0,8,16,01,00,00,00,17,F5,00,
2815588,00000136,false,Rx,0,8,00,C0,00,80,FF,17,00,8D,
2815789,00000142,false,Rx,0,5,44,01,00,00,00,00,00,00,
2815994,00000148,false,Rx,0,8,61,01,00,00,13,00,04,00,
2816288,00000206,false,Rx,0,8,00,00,00,00,00,00,10,18,
2816491,00000119,false,Rx,0,8,4F,01,40,00,04,00,00,F0,
2816775,0000011A,false,Rx,0,8,60,01,40,00,04,00,00,00,
2819250,00000240,false,Rx,0,2,74,32,00,00,00,00,00,00,
2825136,00000118,false,Rx,0,8,2C,02,F0,20,00,00,01,00,
2825346,00000108,false,Rx,0,8,65,02,00,00,00,59,01,00,
2825549,00000136,false,Rx,0,8,00,C0,00,80,FF,27,00,9D,
2825751,00000142,false,Rx,0,5,45,02,00,00,00,00,00,00,
2835091,00000118,false,Rx,0,8,2D,03,F0,20,00,00,01,00,
2835301,00000108,false,Rx,0,8,42,03,00,00,00,30,06,00,
2835586,00000136,false,Rx,0,8,00,C0,00,80,FF,37,00,AD,
2835788,00000142,false,Rx,0,5,46,03,00,00,00,00,00,00,
2835993,00000148,false,Rx,0,8,62,02,00,00,13,00,04,00,
2836286,00000206,false,Rx,0,8,00,00,00,00,00,00,20,28,
2836489,00000119,false,Rx,0,8,50,02,40,00,04,00,00,F0,
2836774,0000011A,false,Rx,0,8,61,02,40,00,04,00,00,00,
2839244,00000240,false,Rx,0,2,75,33,00,00,00,00,00,00,
2845048,00000118,false,Rx,0,8,2E,04,F0,20,00,00,01,00,
2845341,00000108,false,Rx,0,8,7A,04,00,00,00,62,0B,00,
2845544,00000136,false,Rx,0,8,00,C0,00,80,FF,47,00,BD,
2845746,00000142,false,Rx,0,5,47,04,00,00,00,00,00,00,
2855055,00000118,false,Rx,0,8,2F,05,F0,20,00,00,01,00,
2855351,00000108,false,Rx,0,8,F5,05,00,00,00,E8,FF,00,
2855553,00000136,false,Rx,0,8,00,C0,00,80,FF,57,00,CD,
2855756,00000142,false,Rx,0,5,48,05,00,00,00,00,00,00,
2855958,00000148,false,Rx,0,8,63,03,00,00,13,00,04,00,
2856251,00000206,false,Rx,0,8,00,00,00,00,00,00,30,38,
2856453,00000119,false,Rx,0,8,51,03,40,00,04,00,00,F0,
2856738,0000011A,false,Rx,0,8,62,03,40,00,04,00,00,00,
2864400,00000240,false,Rx,0,2,76,34,00,00,00,00,00,00,
2865102,00000118,false,Rx,0,8,30,06,F0,20,00,00,01,00,
2865312,00000108,false,Rx,0,8,5A,06,00,00,00,4C,FF,00,
2865597,00000136,false,Rx,0,8,00,C0,00,80,FF,67,00,DD,
2865800,00000142,false,Rx,0,5,49,06,00,00,00,00,00,00,
2875037,00000118,false,Rx,0,8,31,07,F0,20,00,00,01,00,
2875330,00000108,false,Rx,0,8,49,07,00,00,00,48,F1,00,
2875533,00000136,false,Rx,0,8,00,C0,00,80,FF,77,00,ED,
2875735,00000142,false,Rx,0,5,4A,07,00,00,00,00,00,00,
2876021,00000148,false,Rx,0,8,64,04,00,00,13,00,04,00,
2876230,00000206,false,Rx,0,8,00,00,00,00,00,00,40,48,
2876433,00000119,false,Rx,0,8,52,04,40,00,04,00,00,F0,
2876717,0000011A,false,Rx,0,8,63,04,40,00,04,00,00,00,
2879177,00000240,false,Rx,0,2,77,35,00,00,00,00,00,00,
2885065,00000118,false,Rx,0,8,32,08,F0,20,00,00,01,00,
2885358,00000108,false,Rx,0,8,BE,08,00,00,00,A2,0B,00,
2885560,00000136,false,Rx,0,8,00,C0,00,80,FF,87,00,FD,
2885762,00000142,false,Rx,0,5,4B,08,00,00,00,00,00,00,
2895091,00000118,false,Rx,0,8,33,09,F0,20,00,00,01,00,
2895219,00000256,false,Rx,0,4,DC,84,00,00,00,00,00,00,
2895504,00000108,false,Rx,0,8,EF,09,00,00,00,EA,F3,00,
2895706,00000286,false,Rx,0,7,89,04,00,01,00,FC,00,00,
2895993,00000136,false,Rx,0,8,00,C0,00,80,FF,97,00,0D,
2896112,00000142,false,Rx,0,5,4C,09,00,00,00,00,00,00,
2896406,00000148,false,Rx,0,8,65,05,00,00,13,00,04,00,
2896608,00000206,false,Rx,0,8,00,00,00,00,00,00,50,58,
2896894,00000119,false,Rx,0,8,53,05,40,00,04,00,00,F0,
2897097,0000011A,false,Rx,0,8,64,05,40,00,04,00,00,00,
2899226,00000240,false,Rx,0,2,78,36,00,00,00,00,00,00,
2905201,00000118,false,Rx,0,8,34,0A,F0,20,00,00,01,00,
2905404,00000108,false,Rx,0,8,81,0A,00,00,00,66,08,00,
2905689,00000136,false,Rx,0,8,00,C0,00,80,FF,A7,00,1D,
2905891,00000142,false,Rx,0,5,4D,0A,00,00,00,00,00,00,
2919376,00000118,false,Rx,0,8,35,0B,F0,20,00,00,01,00,
2919464,00000108,false,Rx,0,8,B3,0B,00,00,00,96,09,00,
2919551,00000136,false,Rx,0,8,00,C0,00,80,FF,B7,00,2D,
2919638,00000142,false,Rx,0,5,4E,0B,00,00,00,00,00,00,
2919725,00000148,false,Rx,0,8,66,06,00,00,13,00,04,00,
2919812,00000206,false,Rx,0,8,00,00,00,00,00,00,60,68,
2919899,00000119,false,Rx,0,8,54,06,40,00,04,00,00,F0,
2919988,0000011A,false,Rx,0,8,65,06,40,00,04,00,00,00,
2920075,00000240,false,Rx,0,2,79,37,00,00,00,00,00,00,
2925304,00000118,false,Rx,0,8,36,0C,F0,20,00,00,01,00,
2925589,00000108,false,Rx,0,8,3C,0C,00,00,00,2C,FB,00,
2925792,00000136,false,Rx,0,8,00,C0,00,80,FF,C7,00,3D,
2925996,00000142,false,Rx,0,5,4F,0C,00,00,00,00,00,00,
2935329,00000118,false,Rx,0,8,37,0D,F0,20,00,00,01,00,
2935614,00000108,false,Rx,0,8,42,0D,00,00,00,23,09,00,
2935817,00000136,false,Rx,0,8,00,C0,00,80,FF,D7,00,4D,
2936021,00000142,false,Rx,0,5,50,0D,00,00,00,00,00,00,
2936231,00000148,false,Rx,0,8,67,07,00,00,13,00,04,00,
2936516,00000206,false,Rx,0,8,00,00,00,00,00,00,70,78,
2936719,00000119,false,Rx,0,8,55,07,40,00,04,00,00,F0,
2937006,0000011A,false,Rx,0,8,66,07,40,00,04,00,00,00,
2939217,00000240,false,Rx,0,2,7A,38,00,00,00,00,00,00,
2945362,00000118,false,Rx,0,8,38,0E,F0,20,00,00,01,00,
2945565,00000108,false,Rx,0,8,19,0E,00,00,00,1C,E6,00,
2945850,00000136,false,Rx,0,8,00,C0,00,80,FF,E7,00,5D,
2946053,00000142,false,Rx,0,5,51,0E,00,00,00,00,00,00,
2955365,00000118,false,Rx,0,8,39,0F,F0,20,00,00,01,00,
2955567,00000108,false,Rx,0,8,27,0F,00,00,00,16,F9,00,
2955853,00000136,false,Rx,0,8,00,C0,00,80,FF,F7,00,6D,
2955977,00000142,false,Rx,0,5,52,0F,00,00,00,00,00,00,
2956270,00000148,false,Rx,0,8,68,08,00,00,13,00,04,00,
2956472,00000206,false,Rx,0,8,00,00,00,00,00,00,80,88,
2956758,00000119,false,Rx,0,8,56,08,40,00,04,00,00,F0,
2956961,0000011A,false,Rx,0,8,67,08,40,00,04,00,00,00,
2959174,00000240,false,Rx,0,2,7B,39,00,00,00,00,00,00,
2965154,00000118,false,Rx,0,8,2A,00,F0,20,00,00,01,00,
2965356,00000108,false,Rx,0,8,F7,00,00,00,00,CF,1F,00,
2965641,00000136,false,Rx,0,8,00,C0,00,80,FF,07,00,7D,
2965760,00000142,false,Rx,0,5,43,00,00,00,00,00,00,00,
2975627,00000118,false,Rx,0,8,2B,01,F0,20,00,00,01,00,
2975747,00000108,false,Rx,0,8,F5,01,00,00,00,FB,F0,00,
2975834,00000136,false,Rx,0,8,00,C0,00,80,FF,17,00,8D,
2975921,00000142,false,Rx,0,5,44,01,00,00,00,00,00,00,
2976041,00000148,false,Rx,0,8,69,09,00,00,13,00,04,00,
2976251,00000206,false,Rx,0,8,00,00,00,00,00,00,90,98,
2976537,00000119,false,Rx,0,8,57,09,40,00,04,00,00,F0,
2976739,0000011A,false,Rx,0,8,68,09,40,00,04,00,00,00,
2979205,00000240,false,Rx,0,2,7C,3A,00,00,00,00,00,00,
2985094,00000118,false,Rx,0,8,2C,02,F0,20,00,00,01,00,
2985387,00000108,false,Rx,0,8,F1,02,00,00,00,DF,07,00,
2985590,00000136,false,Rx,0,8,00,C0,00,80,FF,27,00,9D,
2985791,00000142,false,Rx,0,5,45,02,00,00,00,00,00,00,
2995117,00000118,false,Rx,0,8,2D,03,F0,20,00,00,01,00,
2995328,00000108,false,Rx,0,8,71,03,00,00,00,69,FC,00,
2995612,00000136,false,Rx,0,8,00,C0,00,80,FF,37,00,AD,
2995814,00000256,false,Rx,0,4,DD,85,00,00,00,00,00,00,
2995933,00000142,false,Rx,0,5,46,03,00,00,00,00,00,00,
2996226,00000286,false,Rx,0,7,8A,05,00,01,00,FC,00,00,
2996429,00000148,false,Rx,0,8,6A,0A,00,00,13,00,04,00,
2996714,00000206,false,Rx,0,8,00,00,00,00,00,00,A0,A8,
2996916,00000119,false,Rx,0,8,58,0A,40,00,04,00,00,F0,
2997121,0000011A,false,Rx,0,8,69,0A,40,00,04,00,00,00,
2999174,00000240,false,Rx,0,2,7D,3B,00,00,00,00,00,00,
3005154,00000118,false,Rx,0,8,2E,04,F0,20,00,00,01,00,
3005357,00000108,false,Rx,0,8,A5,04,00,00,00,97,01,00,
3005558,00000136,false,Rx,0,8,00,C0,00,80,FF,47,00,BD,
3005759,00000142,false,Rx,0,5,47,04,00,00,00,00,00,00,
3015091,00000118,false,Rx,0,8,2F,05,F0,20,00,00,01,00,
3015328,00000108,false,Rx,0,8,EE,05,00,00,00,0A,D6,00,
3015612,00000136,false,Rx,0,8,00,C0,00,80,FF,57,00,CD,
3015731,00000142,false,Rx,0,5,48,05,00,00,00,00,00,00,
3016019,00000148,false,Rx,0,8,6B,0B,00,00,13,00,04,00,
3016230,00000206,false,Rx,0,8,00,00,00,00,00,00,B0,B8,
3016516,00000119,false,Rx,0,8,59,0B,40,00,04,00,00,F0,
3016717,0000011A,false,Rx,0,8,6A,0B,40,00,04,00,00,00,
3019183,00000240,false,Rx,0,2,7E,3C,00,00,00,00,00,00,
3025076,00000118,false,Rx,0,8,30,06,F0,20,00,00,01,00,
3025368,00000108,false,Rx,0,8,BD,06,00,00,00,B3,FB,00,
3025570,00000136,false,Rx,0,8,00,C0,00,80,FF,67,00,DD,
3032003,00000142,false,Rx,0,5,49,06,00,00,00,00,00,00,
3035134,00000118,false,Rx,0,8,31,07,F0,20,00,00,01,00,
3035344,00000108,false,Rx,0,8,D5,07,00,00,00,C6,FF,00,
3035547,00000136,false,Rx,0,8,00,C0,00,80,FF,77,00,ED,
3035832,00000142,false,Rx,0,5,4A,07,00,00,00,00,00,00,
3036035,00000148,false,Rx,0,8,6C,0C,00,00,13,00,04,00,
3036328,00000206,false,Rx,0,8,00,00,00,00,00,00,C0,C8,
3036531,00000119,false,Rx,0,8,5A,0C,40,00,04,00,00,F0,
3036732,0000011A,false,Rx,0,8,6B,0C,40,00,04,00,00,00,
3039202,00000240,false,Rx,0,2,7F,3D,00,00,00,00,00,00,
3045093,00000118,false,Rx,0,8,32,08,F0,20,00,00,01,00,
3045387,00000108,false,Rx,0,8,B0,08,00,00,00,A7,F8,00,
3045589,00000136,false,Rx,0,8,00,C0,00,80,FF,87,00,FD,
3045791,00000142,false,Rx,0,5,4B,08,00,00,00,00,00,00,
3055131,00000118,false,Rx,0,8,33,09,F0,20,00,00,01,00,
3055342,00000108,false,Rx,0,8,FA,09,00,00,00,09,DF,00,
3055543,00000136,false,Rx,0,8,00,C0,00,80,FF,97,00,0D,
3055745,00000142,false,Rx,0,5,4C,09,00,00,00,00,00,00,
3056033,00000148,false,Rx,0,8,6D,0D,00,00,13,00,04,00,
3056242,00000206,false,Rx,0,8,00,00,00,00,00,00,D0,D8,
3056527,00000119,false,Rx,0,8,5B,0D,40,00,04,00,00,F0,
3056730,0000011A,false,Rx,0,8,6C,0D,40,00,04,00,00,00,
3059196,00000240,false,Rx,0,2,80,3E,00,00,00,00,00,00,
3065181,00000118,false,Rx,0,8,34,0A,F0,20,00,00,01,00,
3065383,00000108,false,Rx,0,8,63,0A,00,00,00,44,0C,00,
3065669,00000136,false,Rx,0,8,00,C0,00,80,FF,A7,00,1D,
3065870,00000142,false,Rx,0,5,4D,0A,00,00,00,00,00,00,
3075286,00000118,false,Rx,0,8,35,0B,F0,20,00,00,01,00,
3075489,00000108,false,Rx,0,8,0F,0B,00,00,00,EB,10,00,
3075773,00000136,false,Rx,0,8,00,C0,00,80,FF,B7,00,2D,
3075892,00000142,false,Rx,0,5,4E,0B,00,00,00,00,00,00,
3076187,00000148,false,Rx,0,8,6E,0E,00,00,13,00,04,00,
3076388,00000206,false,Rx,0,8,00,00,00,00,00,00,E0,E8,
3076674,00000119,false,Rx,0,8,5C,0E,40,00,04,00,00,F0,
3076876,0000011A,false,Rx,0,8,6D,0E,40,00,04,00,00,00,
3079172,00000240,false,Rx,0,2,81,3F,00,00,00,00,00,00,
3087616,00000118,false,Rx,0,8,36,0C,F0,20,00,00,01,00,
3087704,00000108,false,Rx,0,8,46,0C,00,00,00,07,2A,00,
3087791,00000136,false,Rx,0,8,00,C0,00,80,FF,C7,00,3D,
3087878,00000142,false,Rx,0,5,4F,0C,00,00,00,00,00,00,
3095286,00000118,false,Rx,0,8,37,0D,F0,20,00,00,01,00,
3095488,00000256,false,Rx,0,4,1E,86,40,00,00,00,00,00,
3095772,00000108,false,Rx,0,8,92,0D,00,00,00,74,08,00,
3095976,00000286,false,Rx,0,7,8B,06,00,01,00,FC,00,00,
3096186,00000136,false,Rx,0,8,00,C0,00,80,FF,D7,00,4D,
3096388,00000142,false,Rx,0,5,50,0D,00,00,00,00,00,00,
3096590,00000148,false,Rx,0,8,6F,0F,00,00,13,00,04,00,
3096876,00000206,false,Rx,0,8,00,00,00,00,00,00,F0,F8,
3097082,00000119,false,Rx,0,8,5D,0F,40,00,04,00,00,F0,
3097374,0000011A,false,Rx,0,8,6E,0F,40,00,04,00,00,00,
3099166,00000240,false,Rx,0,2,72,30,00,00,00,00,00,00,
3105308,00000118,false,Rx,0,8,38,0E,F0,20,00,00,01,00,
3105593,00000108,false,Rx,0,8,F0,0E,00,00,00,EB,EE,00,
3105796,00000136,false,Rx,0,8,00,C0,00,80,FF,E7,00,5D,
3105999,00000142,false,Rx,0,5,51,0E,00,00,00,00,00,00,
3115333,00000118,false,Rx,0,8,39,0F,F0,20,00,00,01,00,
3115535,00000108,false,Rx,0,8,C6,0F,00,00,00,94,1A,00,
3115820,00000136,false,Rx,0,8,00,C0,00,80,FF,F7,00,6D,
3116025,00000142,false,Rx,0,5,52,0F,00,00,00,00,00,00,
3116235,00000148,false,Rx,0,8,60,00,00,00,13,00,04,00,
3116521,00000206,false,Rx,0,8,00,00,00,00,00,00,00,08,
3116723,00000119,false,Rx,0,8,4E,00,40,00,04,00,00,F0,
3117010,0000011A,false,Rx,0,8,5F,00,40,00,04,00,00,00,
3119226,00000240,false,Rx,0,2,73,31,00,00,00,00,00,00,
3125115,00000118,false,Rx,0,8,2A,00,F0,20,00,00,01,00,
3125326,00000108,false,Rx,0,8,B1,00,00,00,00,C0,E8,00,
3125611,00000136,false,Rx,0,8,00,C0,00,80,FF,07,00,7D,
3125730,00000142,false,Rx,0,5,43,00,00,00,00,00,00,00,
3135051,00000118,false,Rx,0,8,2B,01,F0,20,00,00,01,00,
3135344,00000108,false,Rx,0,8,48,01,00,00,00,3A,04,00,
3135547,00000136,false,Rx,0,8,00,C0,00,80,FF,17,00,8D,
3135748,00000142,false,Rx,0,5,44,01,00,00,00,00,00,00,
3136038,00000148,false,Rx,0,8,61,01,00,00,13,00,04,00,
3136248,00000206,false,Rx,0,8,00,00,00,00,00,00,10,18,
3136533,00000119,false,Rx,0,8,4F,01,40,00,04,00,00,F0,
3136736,0000011A,false,Rx,0,8,60,01,40,00,04,00,00,00,
3144035,00000240,false,Rx,0,2,74,32,00,00,00,00,00,00,
3145076,00000118,false,Rx,0,8,2C,02,F0,20,00,00,01,00,
3145369,00000108,false,Rx,0,8,CB,02,00,00,00,CD,F3,00,
3145571,00000136,false,Rx,0,8,00,C0,00,80,FF,27,00,9D,
3145773,00000142,false,Rx,0,5,45,02,00,00,00,00,00,00,
3155072,00000118,false,Rx,0,8,2D,03,F0,20,00,00,01,00,
3155366,00000108,false,Rx,0,8,93,03,00,00,00,7F,08,00,
3155568,00000136,false,Rx,0,8,00,C0,00,80,FF,37,00,AD,
3155770,00000142,false,Rx,0,5,46,03,00,00,00,00,00,00,
3156056,00000148,false,Rx,0,8,62,02,00,00,13,00,04,00,
3156267,00000206,false,Rx,0,8,00,00,00,00,00,00,20,28,
3156563,00000119,false,Rx,0,8,50,02,40,00,04,00,00,F0,
3156766,0000011A,false,Rx,0,8,61,02,40,00,04,00,00,00,
3159152,00000240,false,Rx,0,2,75,33,00,00,00,00,00,00,
3165119,00000118,false,Rx,0,8,2E,04,F0,20,00,00,01,00,
3165330,00000108,false,Rx,0,8,9A,04,00,00,00,92,FB,00,
3165532,00000136,false,Rx,0,8,00,C0,00,80,FF,47,00,BD,
3165733,00000142,false,Rx,0,5,47,04,00,00,00,00,00,00,
3175054,00000118,false,Rx,0,8,2F,05,F0,20,00,00,01,00,
3175347,00000108,false,Rx,0,8,02,05,00,00,00,01,F3,00,
3175549,00000136,false,Rx,0,8,00,C0,00,80,FF,57,00,CD,
3175752,00000142,false,Rx,0,5,48,05,00,00,00,00,00,00,
3176040,00000148,false,Rx,0,8,63,03,00,00,13,00,04,00,
3176250,00000206,false,Rx,0,8,00,00,00,00,00,00,30,38,
3176452,00000119,false,Rx,0,8,51,03,40,00,04,00,00,F0,
3176738,0000011A,false,Rx,0,8,62,03,40,00,04,00,00,00,
3179205,00000240,false,Rx,0,2,76,34,00,00,00,00,00,00,
3185094,00000118,false,Rx,0,8,30,06,F0,20,00,00,01,00,
3185303,00000108,false,Rx,0,8,14,06,00,00,00,FE,07,00,
3185589,00000136,false,Rx,0,8,00,C0,00,80,FF,67,00,DD,
3185791,00000142,false,Rx,0,5,49,06,00,00,00,00,00,00,
3198674,00000118,false,Rx,0,8,31,07,F0,20,00,00,01,00,
3198762,00000108,false,Rx,0,8,DB,07,00,00,00,B7,14,00,
3198849,00000256,false,Rx,0,4,9F,07,40,00,00,00,00,00,
3198936,00000136,false,Rx,0,8,00,C0,00,80,FF,77,00,ED,
3199024,00000286,false,Rx,0,7,8C,07,00,01,00,FC,00,00,
3199150,00000142,false,Rx,0,5,4A,07,00,00,00,00,00,00,
3199237,00000148,false,Rx,0,8,64,04,00,00,13,00,04,00,
3199324,00000206,false,Rx,0,8,00,00,00,00,00,00,40,48,
3199411,00000119,false,Rx,0,8,52,04,40,00,04,00,00,F0,
3199498,0000011A,false,Rx,0,8,63,04,40,00,04,00,00,00,
3199585,00000240,false,Rx,0,2,77,35,00,00,00,00,00,00,
3205057,00000118,false,Rx,0,8,32,08,F0,20,00,00,01,00,
3205351,00000108,false,Rx,0,8,E6,08,00,00,00,C7,0E,00,
3205554,00000136,false,Rx,0,8,00,C0,00,80,FF,87,00,FD,
3205756,00000142,false,Rx,0,5,4B,08,00,00,00,00,00,00,
3215088,00000118,false,Rx,0,8,33,09,F0,20,00,00,01,00,
3215298,00000108,false,Rx,0,8,DD,09,00,00,00,CF,FC,00,
3215583,00000136,false,Rx,0,8,00,C0,00,80,FF,97,00,0D,
3215785,00000142,false,Rx,0,5,4C,09,00,00,00,00,00,00,
3215988,00000148,false,Rx,0,8,65,05,00,00,13,00,04,00,
3216282,00000206,false,Rx,0,8,00,00,00,00,00,00,50,58,
3216484,00000119,false,Rx,0,8,53,05,40,00,04,00,00,F0,
3216686,0000011A,false,Rx,0,8,64,05,40,00,04,00,00,00,
3219157,00000240,false,Rx,0,2,78,36,00,00,00,00,00,00,
3225218,00000118,false,Rx,0,8,34,0A,F0,20,00,00,01,00,
3225421,00000108,false,Rx,0,8,D4,0A,00,00,00,EC,D5,00,
3225622,00000136,false,Rx,0,8,00,C0,00,80,FF,A7,00,1D,
3225824,00000142,false,Rx,0,5,4D,0A,00,00,00,00,00,00,
3235256,00000118,false,Rx,0,8,35,0B,F0,20,00,00,01,00,
3235457,00000108,false,Rx,0,8,40,0B,00,00,00,1D,0F,00,
3235743,00000136,false,Rx,0,8,00,C0,00,80,FF,B7,00,2D,
3235950,00000142,false,Rx,0,5,4E,0B,00,00,00,00,00,00,
3236160,00000148,false,Rx,0,8,66,06,00,00,13,00,04,00,
3236445,00000206,false,Rx,0,8,00,00,00,00,00,00,60,68,
3236648,00000119,false,Rx,0,8,54,06,40,00,04,00,00,F0,
3236933,0000011A,false,Rx,0,8,65,06,40,00,04,00,00,00,
3239155,00000240,false,Rx,0,2,79,37,00,00,00,00,00,00,
3245297,00000118,false,Rx,0,8,36,0C,F0,20,00,00,01,00,
3245582,00000108,false,Rx,0,8,AB,0C,00,00,00,9A,FC,00,
3245785,00000136,false,Rx,0,8,00,C0,00,80,FF,C7,00,3D,
3245993,00000142,false,Rx,0,5,4F,0C,00,00,00,00,00,00,
3255314,00000118,false,Rx,0,8,37,0D,F0,20,00,00,01,00,
3255515,00000108,false,Rx,0,8,A9,0D,00,00,00,8B,08,00,
3255801,00000136,false,Rx,0,8,00,C0,00,80,FF,D7,00,4D,
3256005,00000142,false,Rx,0,5,50,0D,00,00,00,00,00,00,
3256216,00000148,false,Rx,0,8,67,07,00,00,13,00,04,00,
3256523,00000206,false,Rx,0,8,00,00,00,00,00,00,70,78,
3256731,00000119,false,Rx,0,8,55,07,40,00,04,00,00,F0,
3256932,0000011A,false,Rx,0,8,66,07,40,00,04,00,00,00,
3259166,00000240,false,Rx,0,2,7A,38,00,00,00,00,00,00,
3265309,00000118,false,Rx,0,8,38,0E,F0,20,00,00,01,00,
3265594,00000108,false,Rx,0,8,D1,0E,00,00,00,E7,D3,00,
3265796,00000136,false,Rx,0,8,00,C0,00,80,FF,E7,00,5D,
3266001,00000142,false,Rx,0,5,51,0E,00,00,00,00,00,00,
3275098,00000118,false,Rx,0,8,39,0F,F0,20,00,00,01,00,
3275391,00000108,false,Rx,0,8,63,0F,00,00,00,40,0B,00,
3275593,00000136,false,Rx,0,8,00,C0,00,80,FF,F7,00,6D,
3275795,00000142,false,Rx,0,5,52,0F,00,00,00,00,00,00,
3276001,00000148,false,Rx,0,8,68,08,00,00,13,00,04,00,
3276295,00000206,false,Rx,0,8,00,00,00,00,00,00,80,88,
3276497,00000119,false,Rx,0,8,56,08,40,00,04,00,00,F0,
3276783,0000011A,false,Rx,0,8,67,08,40,00,04,00,00,00,
3279173,00000240,false,Rx,0,2,7B,39,00,00,00,00,00,00,
3285059,00000118,false,Rx,0,8,2A,00,F0,20,00,00,01,00,
3285352,00000108,false,Rx,0,8,99,00,00,00,00,A2,EE,00,
3285555,00000136,false,Rx,0,8,00,C0,00,80,FF,07,00,7D,
3285757,00000142,false,Rx,0,5,43,00,00,00,00,00,00,00,
3295087,00000118,false,Rx,0,8,2B,01,F0,20,00,00,01,00,
3295297,00000108,false,Rx,0,8,6A,01,00,00,00,77,E9,00,
3295581,00000136,false,Rx,0,8,00,C0,00,80,FF,17,00,8D,
3295700,00000256,false,Rx,0,4,20,88,40,00,00,00,00,00,
3295902,00000142,false,Rx,0,5,44,01,00,00,00,00,00,00,
3296196,00000286,false,Rx,0,7,8D,08,00,01,00,FC,00,00,
3296399,00000148,false,Rx,0,8,69,09,00,00,13,00,04,00,
3296601,00000206,false,Rx,0,8,00,00,00,00,00,00,90,98,
3296886,00000119,false,Rx,0,8,57,09,40,00,04,00,00,F0,
3297091,0000011A,false,Rx,0,8,68,09,40,00,04,00,00,00,
3299223,00000240,false,Rx,0,2,7C,3A,00,00,00,00,00,00,
3305054,00000118,false,Rx,0,8,2C,02,F0,20,00,00,01,00,
3311222,00000108,false,Rx,0,8,28,02,00,00,00,23,FA,00,
3311311,00000136,false,Rx,0,8,00,C0,00,80,FF,27,00,9D,
3311398,00000142,false,Rx,0,5,45,02,00,00,00,00,00,00,
3315028,00000118,false,Rx,0,8,2D,03,F0,20,00,00,01,00,
3315321,00000108,false,Rx,0,8,D6,03,00,00,00,DB,EF,00,
3315523,00000136,false,Rx,0,8,00,C0,00,80,FF,37,00,AD,
3315724,00000142,false,Rx,0,5,46,03,00,00,00,00,00,00,
3316012,00000148,false,Rx,0,8,6A,0A,00,00,13,00,04,00,
3316223,00000206,false,Rx,0,8,00,00,00,00,00,00,A0,A8,
3316425,00000119,false,Rx,0,8,58,0A,40,00,04,00,00,F0,
3316710,0000011A,false,Rx,0,8,69,0A,40,00,04,00,00,00,
3319182,00000240,false,Rx,0,2,7D,3B,00,00,00,00,00,00,
3325071,00000118,false,Rx,0,8,2E,04,F0,20,00,00,01,00,
3325365,00000108,false,Rx,0,8,02,04,00,00,00,01,F4,00,
3325567,00000136,false,Rx,0,8,00,C0,00,80,FF,47,00,BD,
3325769,00000142,false,Rx,0,5,47,04,00,00,00,00,00,00,
3335097,00000118,false,Rx,0,8,2F,05,F0,20,00,00,01,00,
3335308,00000108,false,Rx,0,8,E6,05,00,00,00,D3,05,00,
3335594,00000136,false,Rx,0,8,00,C0,00,80,FF,57,00,CD,
3335713,00000142,false,Rx,0,5,48,05,00,00,00,00,00,00,
3336000,00000148,false,Rx,0,8,6B,0B,00,00,13,00,04,00,
3336211,00000206,false,Rx,0,8,00,00,00,00,00,00,B0,B8,
3336496,00000119,false,Rx,0,8,59,0B,40,00,04,00,00,F0,
3336698,0000011A,false,Rx,0,8,6A,0B,40,00,04,00,00,00,
3339167,00000240,false,Rx,0,2,7E,3C,00,00,00,00,00,00,
3345042,00000118,false,Rx,0,8,30,06,F0,20,00,00,01,00,
3345336,00000108,false,Rx,0,8,AA,06,00,00,00,A4,F7,00,
3345539,00000136,false,Rx,0,8,00,C0,00,80,FF,67,00,DD,
3345740,00000142,false,Rx,0,5,49,06,00,00,00,00,00,00,
3355096,00000118,false,Rx,0,8,31,07,F0,20,00,00,01,00,
3355331,00000108,false,Rx,0,8,9A,07,00,00,00,87,03,00,
3355533,00000136,false,Rx,0,8,00,C0,00,80,FF,77,00,ED,
3355735,00000142,false,Rx,0,5,4A,07,00,00,00,00,00,00,
3355938,00000148,false,Rx,0,8,6C,0C,00,00,13,00,04,00,
3356225,00000206,false,Rx,0,8,00,00,00,00,00,00,C0,C8,
3356427,00000119,false,Rx,0,8,5A,0C,40,00,04,00,00,F0,
3356712,0000011A,false,Rx,0,8,6B,0C,40,00,04,00,00,00,
3359184,00000240,false,Rx,0,2,7F,3D,00,00,00,00,00,00,
3367203,00000118,false,Rx,0,8,32,08,F0,20,00,00,01,00,
3367291,00000108,false,Rx,0,8,19,08,00,00,00,E1,27,00,
3367378,00000136,false,Rx,0,8,00,C0,00,80,FF,87,00,FD,
3367465,00000142,false,Rx,0,5,4B,08,00,00,00,00,00,00,
3375112,00000118,false,Rx,0,8,33,09,F0,20,00,00,01,00,
3375323,00000108,false,Rx,0,8,25,09,00,00,00,10,03,00,
3375609,00000136,false,Rx,0,8,00,C0,00,80,FF,97,00,0D,
3375810,00000142,false,Rx,0,5,4C,09,00,00,00,00,00,00,
3376015,00000148,false,Rx,0,8,6D,0D,00,00,13,00,04,00,
3376226,00000206,false,Rx,0,8,00,00,00,00,00,00,D0,D8,
3376511,00000119,false,Rx,0,8,5B,0D,40,00,04,00,00,F0,
3376713,0000011A,false,Rx,0,8,6C,0D,40,00,04,00,00,00,
3379184,00000240,false,Rx,0,2,80,3E,00,00,00,00,00,00,
3385156,00000118,false,Rx,0,8,34,0A,F0,20,00,00,01,00,
3385441,00000108,false,Rx,0,8,03,0A,00,00,00,F1,FF,00,
3385644,00000136,false,Rx,0,8,00,C0,00,80,FF,A7,00,1D,
3385846,00000142,false,Rx,0,5,4D,0A,00,00,00,00,00,00,
3395263,00000118,false,Rx,0,8,35,0B,F0,20,00,00,01,00,
3395465,00000108,false,Rx,0,8,59,0B,00,00,00,42,03,00,
3395667,00000256,false,Rx,0,4,21,89,40,00,00,00,00,00,
3395869,00000136,false,Rx,0,8,00,C0,00,80,FF,B7,00,2D,
3396164,00000286,false,Rx,0,7,8E,09,00,01,00,FC,00,00,
3396283,00000142,false,Rx,0,5,4E,0B,00,00,00,00,00,00,
3396569,00000148,false,Rx,0,8,6E,0E,00,00,13,00,04,00,
3396771,00000206,false,Rx,0,8,00,00,00,00,00,00,E0,E8,
3397058,00000119,false,Rx,0,8,5C,0E,40,00,04,00,00,F0,
3397268,0000011A,false,Rx,0,8,6D,0E,40,00,04,00,00,00,
3399147,00000240,false,Rx,0,2,81,3F,00,00,00,00,00,00,
3405288,00000118,false,Rx,0,8,36,0C,F0,20,00,00,01,00,
3405573,00000108,false,Rx,0,8,FE,0C,00,00,00,F0,F9,00,
3405775,00000136,false,Rx,0,8,00,C0,00,80,FF,C7,00,3D,
3405981,00000142,false,Rx,0,5,4F,0C,00,00,00,00,00,00,
3415308,00000118,false,Rx,0,8,37,0D,F0,20,00,00,01,00,
3415510,00000108,false,Rx,0,8,B1,0D,00,00,00,A4,F7,00,
3415796,00000136,false,Rx,0,8,00,C0,00,80,FF,D7,00,4D,
3415998,00000142,false,Rx,0,5,50,0D,00,00,00,00,00,00,
3416209,00000148,false,Rx,0,8,6F,0F,00,00,13,00,04,00,
3416494,00000206,false,Rx,0,8,00,00,00,00,00,00,F0,F8,
3416697,00000119,false,Rx,0,8,5D,0F,40,00,04,00,00,F0,
3416984,0000011A,false,Rx,0,8,6E,0F,40,00,04,00,00,00,
3423617,00000240,false,Rx,0,2,72,30,00,00,00,00,00,00,
3425332,00000118,false,Rx,0,8,38,0E,F0,20,00,00,01,00,
3425535,00000108,false,Rx,0,8,BB,0E,00,00,00,A0,04,00,
3425820,00000136,false,Rx,0,8,00,C0,00,80,FF,E7,00,5D,
3425939,00000142,false,Rx,0,5,51,0E,00,00,00,00,00,00,
3435035,00000118,false,Rx,0,8,39,0F,F0,20,00,00,01,00,
3435328,00000108,false,Rx,0,8,49,0F,00,00,00,33,FE,00,
3435529,00000136,false,Rx,0,8,00,C0,00,80,FF,F7,00,6D,
3435731,00000142,false,Rx,0,5,52,0F,00,00,00,00,00,00,
3436017,00000148,false,Rx,0,8,60,00,00,00,13,00,04,00,
3436227,00000206,false,Rx,0,8,00,00,00,00,00,00,00,08,
3436429,00000119,false,Rx,0,8,4E,00,40,00,04,00,00,F0,
3436714,0000011A,false,Rx,0,8,5F,00,40,00,04,00,00,00,
3439184,00000240,false,Rx,0,2,73,31,00,00,00,00,00,00,
3445077,00000118,false,Rx,0,8,2A,00,F0,20,00,00,01,00,
3445287,00000108,false,Rx,0,8,BB,00,00,00,00,BF,F3,00,
3445572,00000136,false,Rx,0,8,00,C0,00,80,FF,07,00,7D,
3445775,00000142,false,Rx,0,5,43,00,00,00,00,00,00,00,
3455050,00000118,false,Rx,0,8,2B,01,F0,20,00,00,01,00,
3455260,00000108,false,Rx,0,8,FB,01,00,00,00,EF,02,00,
3455546,00000136,false,Rx,0,8,00,C0,00,80,FF,17,00,8D,
3455748,00000142,false,Rx,0,5,44,01,00,00,00,00,00,00,
3455953,00000148,false,Rx,0,8,61,01,00,00,13,00,04,00,
3456245,00000206,false,Rx,0,8,00,00,00,00,00,00,10,18,
3456447,00000119,false,Rx,0,8,4F,01,40,00,04,00,00,F0,
3456733,0000011A,false,Rx,0,8,60,01,40,00,04,00,00,00,
3459199,00000240,false,Rx,0,2,74,32,00,00,00,00,00,00,
3465042,00000118,false,Rx,0,8,2C,02,F0,20,00,00,01,00,
3465335,00000108,false,Rx,0,8,DC,02,00,00,00,D1,00,00,
3465537,00000136,false,Rx,0,8,00,C0,00,80,FF,27,00,9D,
3465740,00000142,false,Rx,0,5,45,02,00,00,00,00,00,00,
3478285,00000118,false,Rx,0,8,2D,03,F0,20,00,00,01,00,
3478373,00000108,false,Rx,0,8,0F,03,00,00,00,26,DD,00,
3478460,00000136,false,Rx,0,8,00,C0,00,80,FF,37,00,AD,
3478547,00000142,false,Rx,0,5,46,03,00,00,00,00,00,00,
3478634,00000148,false,Rx,0,8,62,02,00,00,13,00,04,00,
3478721,00000206,false,Rx,0,8,00,00,00,00,00,00,20,28,
3478808,00000119,false,Rx,0,8,50,02,40,00,04,00,00,F0,
3478895,0000011A,false,Rx,0,8,61,02,40,00,04,00,00,00,
3479189,00000240,false,Rx,0,2,75,33,00,00,00,00,00,00,
3485082,00000118,false,Rx,0,8,2E,04,F0,20,00,00,01,00,
3485291,00000108,false,Rx,0,8,75,04,00,00,00,6B,FD,00,
3485577,00000136,false,Rx,0,8,00,C0,00,80,FF,47,00,BD,
3485695,00000142,false,Rx,0,5,47,04,00,00,00,00,00,00,
3495023,00000118,false,Rx,0,8,2F,05,F0,20,00,00,01,00,
3495317,00000108,false,Rx,0,8,EF,05,00,00,00,E9,F8,00,
3495436,00000256,false,Rx,0,4,22,8A,40,00,00,00,00,00,
3495721,00000136,false,Rx,0,8,00,C0,00,80,FF,57,00,CD,
3495923,00000286,false,Rx,0,7,8F,0A,00,01,00,FC,00,00,
3496127,00000142,false,Rx,0,5,48,05,00,00,00,00,00,00,
3496336,00000148,false,Rx,0,8,63,03,00,00,13,00,04,00,
3496621,00000206,false,Rx,0,8,00,00,00,00,00,00,30,38,
3496824,00000119,false,Rx,0,8,51,03,40,00,04,00,00,F0,
3497027,0000011A,false,Rx,0,8,62,03,40,00,04,00,00,00,
3499161,00000240,false,Rx,0,2,76,34,00,00,00,00,00,00,
3505047,00000118,false,Rx,0,8,30,06,F0,20,00,00,01,00,
3505340,00000745,false,Rx,0,8,00,00,00,00,00,00,00,00,
3505542,00000108,false,Rx,0,8,B0,06,00,00,00,AA,F7,00,
3505744,00000745,false,Rx,0,8,01,00,00,00,00,00,00,00,
3506031,00000136,false,Rx,0,8,00,C0,00,80,FF,67,00,DD,
3506242,00000745,false,Rx,0,8,02,00,00,00,00,00,00,00,
3506444,00000142,false,Rx,0,5,49,06,00,00,00,00,00,00,
3506729,00000745,false,Rx,0,8,03,00,00,F0,DE,7B,EF,01,
3506930,00000745,false,Rx,0,8,04,00,00,00,00,00,00,00,
3507224,00000745,false,Rx,0,8,05,00,00,00,00,00,B4,B4,
3507426,00000745,false,Rx,0,8,06,B4,B4,00,00,00,00,00,
3515077,00000118,false,Rx,0,8,31,07,F0,20,00,00,01,00,
3515286,00000108,false,Rx,0,8,68,07,00,00,00,61,F7,00,
3515572,00000136,false,Rx,0,8,00,C0,00,80,FF,77,00,ED,
3515691,00000142,false,Rx,0,5,4A,07,00,00,00,00,00,00,
3515979,00000148,false,Rx,0,8,64,04,00,00,13,00,04,00,
3516182,00000206,false,Rx,0,8,00,00,00,00,00,00,40,48,
3516468,00000119,false,Rx,0,8,52,04,40,00,04,00,00,F0,
3516670,0000011A,false,Rx,0,8,63,04,40,00,04,00,00,00,
3519130,00000240,false,Rx,0,2,77,35,00,00,00,00,00,00,
3525021,00000118,false,Rx,0,8,32,08,F0,20,00,00,01,00,
3525314,00000108,false,Rx,0,8,C2,08,00,00,00,B2,FF,00,
3525516,00000136,false,Rx,0,8,00,C0,00,80,FF,87,00,FD,
3525718,00000142,false,Rx,0,5,4B,08,00,00,00,00,00,00,
3536287,00000118,false,Rx,0,8,33,09,F0,20,00,00,01,00,
3536375,00000108,false,Rx,0,8,E9,09,00,00,00,DE,F9,00,
3536495,00000136,false,Rx,0,8,00,C0,00,80,FF,97,00,0D,
3536582,00000142,false,Rx,0,5,4C,09,00,00,00,00,00,00,
3536702,00000148,false,Rx,0,8,65,05,00,00,13,00,04,00,
3536789,00000206,false,Rx,0,8,00,00,00,00,00,00,50,58,
3536876,00000119,false,Rx,0,8,53,05,40,00,04,00,00,F0,
3536967,0000011A,false,Rx,0,8,64,05,40,00,04,00,00,00,
3539184,00000240,false,Rx,0,2,78,36,00,00,00,00,00,00,
3545157,00000118,false,Rx,0,8,34,0A,F0,20,00,00,01,00,
3545451,00000108,false,Rx,0,8,20,0A,00,00,00,DC,31,00,
3545654,00000136,false,Rx,0,8,00,C0,00,80,FF,A7,00,1D,
3545856,00000142,false,Rx,0,5,4D,0A,00,00,00,00,00,00,
3555244,00000118,false,Rx,0,8,35,0B,F0,20,00,00,01,00,
3555529,00000108,false,Rx,0,8,89,0B,00,00,00,70,05,00,
3555732,00000136,false,Rx,0,8,00,C0,00,80,FF,B7,00,2D,
3555935,00000142,false,Rx,0,5,4E,0B,00,00,00,00,00,00,
3556145,00000148,false,Rx,0,8,66,06,00,00,13,00,04,00,
3556430,00000206,false,Rx,0,8,00,00,00,00,00,00,60,68,
3556632,00000119,false,Rx,0,8,54,06,40,00,04,00,00,F0,
3556918,0000011A,false,Rx,0,8,65,06,40,00,04,00,00,00,
3559128,00000240,false,Rx,0,2,79,37,00,00,00,00,00,00,
3565309,00000118,false,Rx,0,8,36,0C,F0,20,00,00,01,00,
3565512,00000108,false,Rx,0,8,A9,0C,00,00,00,8E,06,00,
3565796,00000136,false,Rx,0,8,00,C0,00,80,FF,C7,00,3D,
3565915,00000142,false,Rx,0,5,4F,0C,00,00,00,00,00,00,
3575264,00000118,false,Rx,0,8,37,0D,F0,20,00,00,01,00,
3575549,00000108,false,Rx,0,8,86,0D,00,00,00,61,0F,00,
3575751,00000136,false,Rx,0,8,00,C0,00,80,FF,D7,00,4D,
3575956,00000142,false,Rx,0,5,50,0D,00,00,00,00,00,00,
3576249,00000148,false,Rx,0,8,67,07,00,00,13,00,04,00,
3576451,00000206,false,Rx,0,8,00,00,00,00,00,00,70,78,
3576737,00000119,false,Rx,0,8,55,07,40,00,04,00,00,F0,
3576941,0000011A,false,Rx,0,8,66,07,40,00,04,00,00,00,
3579161,00000240,false,Rx,0,2,7A,38,00,00,00,00,00,00,
3585219,00000118,false,Rx,0,8,38,0E,F0,20,00,00,01,00,
3585505,00000108,false,Rx,0,8,C9,0E,00,00,00,8F,23,00,
3585706,00000136,false,Rx,0,8,00,C0,00,80,FF,E7,00,5D,
3585908,00000142,false,Rx,0,5,51,0E,00,00,00,00,00,00,
3594999,00000118,false,Rx,0,8,39,0F,F0,20,00,00,01,00,
3595293,00000108,false,Rx,0,8,1D,0F,00,00,00,E0,25,00,
3595495,00000136,false,Rx,0,8,00,C0,00,80,FF,F7,00,6D,
3595697,00000256,false,Rx,0,4,A3,0B,40,00,00,00,00,00,
3595899,00000142,false,Rx,0,5,52,0F,00,00,00,00,00,00,
3596103,00000286,false,Rx,0,7,94,0B,00,01,04,FC,00,00,
3596314,00000148,false,Rx,0,8,68,08,00,00,13,00,04,00,
3596600,00000206,false,Rx,0,8,00,00,00,00,00,00,80,88,
3596802,00000119,false,Rx,0,8,56,08,40,00,04,00,00,F0,
3597091,0000011A,false,Rx,0,8,67,08,40,00,04,00,00,00,
3599134,00000240,false,Rx,0,2,7B,39,00,00,00,00,00,00,
3605025,00000118,false,Rx,0,8,2A,00,F0,20,00,00,01,00,
3605235,00000108,false,Rx,0,8,C1,00,00,00,00,8C,2C,00,
3605520,00000136,false,Rx,0,8,00,C0,00,80,FF,07,00,7D,
3605722,00000142,false,Rx,0,5,43,00,00,00,00,00,00,00,
3615042,00000118,false,Rx,0,8,2B,01,F0,20,00,00,01,00,
3615252,00000108,false,Rx,0,8,B6,01,00,00,00,D0,DC,00,
3615537,00000136,false,Rx,0,8,00,C0,00,80,FF,17,00,8D,
3615739,00000142,false,Rx,0,5,44,01,00,00,00,00,00,00,
3615944,00000148,false,Rx,0,8,69,09,00,00,13,00,04,00,
3616152,00000206,false,Rx,0,8,00,00,00,00,00,00,90,98,
3616438,00000119,false,Rx,0,8,57,09,40,00,04,00,00,F0,
3616639,0000011A,false,Rx,0,8,68,09,40,00,04,00,00,00,
3619189,00000240,false,Rx,0,2,7C,3A,00,00,00,00,00,00,
3625082,00000118,false,Rx,0,8,2C,02,F0,20,00,00,01,00,
3625292,00000108,false,Rx,0,8,DC,02,00,00,00,B9,18,00,
3625577,00000136,false,Rx,0,8,00,C0,00,80,FF,27,00,9D,
3625696,00000142,false,Rx,0,5,45,02,00,00,00,00,00,00,
3635038,00000118,false,Rx,0,8,2D,03,F0,20,00,00,01,00,
3635249,00000108,false,Rx,0,8,7E,03,00,00,00,7F,F3,00,
3635535,00000136,false,Rx,0,8,00,C0,00,80,FF,37,00,AD,
3635736,00000142,false,Rx,0,5,46,03,00,00,00,00,00,00,
3635939,00000148,false,Rx,0,8,6A,0A,00,00,13,00,04,00,
3636231,00000206,false,Rx,0,8,00,00,00,00,00,00,A0,A8,
3636434,00000119,false,Rx,0,8,58,0A,40,00,04,00,00,F0,
3636635,0000011A,false,Rx,0,8,69,0A,40,00,04,00,00,00,
3639096,00000240,false,Rx,0,2,7D,3B,00,00,00,00,00,00,
3648365,00000118,false,Rx,0,8,2E,04,F0,20,00,00,01,00,
3648453,00000108,false,Rx,0,8,F4,04,00,00,00,D5,12,00,
3648540,00000136,false,Rx,0,8,00,C0,00,80,FF,47,00,BD,
3648627,00000142,false,Rx,0,5,47,04,00,00,00,00,00,00,
3655048,00000118,false,Rx,0,8,2F,05,F0,20,00,00,01,00,
3655258,00000108,false,Rx,0,8,9E,05,00,00,00,7A,16,00,
3655544,00000136,false,Rx,0,8,00,C0,00,80,FF,57,00,CD,
3655662,00000142,false,Rx,0,5,48,05,00,00,00,00,00,00,
3655950,00000148,false,Rx,0,8,6B,0B,00,00,13,00,04,00,
3656159,00000206,false,Rx,0,8,00,00,00,00,00,00,B0,B8,
3656445,00000119,false,Rx,0,8,59,0B,40,00,04,00,00,F0,
3656646,0000011A,false,Rx,0,8,6A,0B,40,00,04,00,00,00,
3659105,00000240,false,Rx,0,2,7E,3C,00,00,00,00,00,00,
3665008,00000118,false,Rx,0,8,30,06,F0,20,00,00,01,00,
3665301,00000108,false,Rx,0,8,7A,06,00,00,00,5F,0C,00,
3665503,00000136,false,Rx,0,8,00,C0,00,80,FF,67,00,DD,
3665705,00000142,false,Rx,0,5,49,06,00,00,00,00,00,00,
3674985,00000118,false,Rx,0,8,31,07,F0,20,00,00,01,00,
3675277,00000108,false,Rx,0,8,1D,07,00,00,00,F5,18,00,
3675479,00000136,false,Rx,0,8,00,C0,00,80,FF,77,00,ED,
3675681,00000142,false,Rx,0,5,4A,07,00,00,00,00,00,00,
3675969,00000148,false,Rx,0,8,6C,0C,00,00,13,00,04,00,
3676180,00000206,false,Rx,0,8,00,00,00,00,00,00,C0,C8,
3676382,00000119,false,Rx,0,8,5A,0C,40,00,04,00,00,F0,
3676667,0000011A,false,Rx,0,8,6B,0C,40,00,04,00,00,00,
3679127,00000240,false,Rx,0,2,7F,3D,00,00,00,00,00,00,
3685022,00000118,false,Rx,0,8,32,08,F0,20,00,00,01,00,
3685232,00000108,false,Rx,0,8,CF,08,00,00,00,C3,FB,00,
3685518,00000136,false,Rx,0,8,00,C0,00,80,FF,87,00,FD,
3685720,00000142,false,Rx,0,5,4B,08,00,00,00,00,00,00,
3695122,00000118,false,Rx,0,8,33,09,F0,20,00,00,01,00,
3695333,00000108,false,Rx,0,8,30,09,00,00,00,1B,03,00,
3695534,00000256,false,Rx,0,4,24,8C,40,00,00,00,00,00,
3695737,00000136,false,Rx,0,8,00,C0,00,80,FF,97,00,0D,
3695941,00000286,false,Rx,0,7,95,0C,00,01,04,FC,00,00,
3696152,00000142,false,Rx,0,5,4C,09,00,00,00,00,00,00,
3696354,00000148,false,Rx,0,8,6D,0D,00,00,13,00,04,00,
3696639,00000206,false,Rx,0,8,00,00,00,00,00,00,D0,D8,
3696842,00000119,false,Rx,0,8,5B,0D,40,00,04,00,00,F0,
3697129,0000011A,false,Rx,0,8,6C,0D,40,00,04,00,00,00,
3704768,00000240,false,Rx,0,2,80,3E,00,00,00,00,00,00,
3705223,00000118,false,Rx,0,8,34,0A,F0,20,00,00,01,00,
3705433,00000108,false,Rx,0,8,60,0A,00,00,00,59,F4,00,
3705718,00000136,false,Rx,0,8,00,C0,00,80,FF,A7,00,1D,
3705837,00000142,false,Rx,0,5,4D,0A,00,00,00,00,00,00,
3715256,00000118,false,Rx,0,8,35,0B,F0,20,00,00,01,00,
3715458,00000108,false,Rx,0,8,A6,0B,00,00,00,83,0F,00,
3715743,00000136,false,Rx,0,8,00,C0,00,80,FF,B7,00,2D,
3715950,00000142,false,Rx,0,5,4E,0B,00,00,00,00,00,00,
3716159,00000148,false,Rx,0,8,6E,0E,00,00,13,00,04,00,
3716445,00000206,false,Rx,0,8,00,00,00,00,00,00,E0,E8,
3716647,00000119,false,Rx,0,8,5C,0E,40,00,04,00,00,F0,
3716849,0000011A,false,Rx,0,8,6D,0E,40,00,04,00,00,00,
3719153,00000240,false,Rx,0,2,81,3F,00,00,00,00,00,00,
3725212,00000118,false,Rx,0,8,36,0C,F0,20,00,00,01,00,
3725498,00000108,false,Rx,0,8,A7,0C,00,00,00,97,FB,00,
3725699,00000136,false,Rx,0,8,00,C0,00,80,FF,C7,00,3D,
3725901,00000142,false,Rx,0,5,4F,0C,00,00,00,00,00,00,
3735231,00000118,false,Rx,0,8,37,0D,F0,20,00,00,01,00,
3735516,00000108,false,Rx,0,8,F3,0D,00,00,00,EE,EF,00,
3735719,00000136,false,Rx,0,8,00,C0,00,80,FF,D7,00,4D,
3735921,00000142,false,Rx,0,5,50,0D,00,00,00,00,00,00,
3736216,00000148,false,Rx,0,8,6F,0F,00,00,13,00,04,00,
3736501,00000206,false,Rx,0,8,00,00,00,00,00,00,F0,F8,
3736702,00000119,false,Rx,0,8,5D,0F,40,00,04,00,00,F0,
3736989,0000011A,false,Rx,0,8,6E,0F,40,00,04,00,00,00,
3739115,00000240,false,Rx,0,2,72,30,00,00,00,00,00,00,
3745268,00000118,false,Rx,0,8,38,0E,F0,20,00,00,01,00,
3745470,00000108,false,Rx,0,8,EB,0E,00,00,00,D2,02,00,
3745756,00000136,false,Rx,0,8,00,C0,00,80,FF,E7,00,5D,
3745961,00000142,false,Rx,0,5,51,0E,00,00,00,00,00,00,
3759438,00000118,false,Rx,0,8,39,0F,F0,20,00,00,01,00,
3759526,00000108,false,Rx,0,8,99,0F,00,00,00,89,F8,00,
3759613,00000136,false,Rx,0,8,00,C0,00,80,FF,F7,00,6D,
3759700,00000142,false,Rx,0,5,52,0F,00,00,00,00,00,00,
3759787,00000148,false,Rx,0,8,60,00,00,00,13,00,04,00,
3759874,00000206,false,Rx,0,8,00,00,00,00,00,00,00,08,
3759963,00000119,false,Rx,0,8,4E,00,40,00,04,00,00,F0,
3760050,0000011A,false,Rx,0,8,5F,00,40,00,04,00,00,00,
3760145,00000240,false,Rx,0,2,73,31,00,00,00,00,00,00,
3765028,00000118,false,Rx,0,8,2A,00,F0,20,00,00,01,00,
3765238,00000108,false,Rx,0,8,7B,00,00,00,00,81,F1,00,
3765524,00000136,false,Rx,0,8,00,C0,00,80,FF,07,00,7D,
3765725,00000142,false,Rx,0,5,43,00,00,00,00,00,00,00,
3775010,00000118,false,Rx,0,8,2B,01,F0,20,00,00,01,00,
3775303,00000108,false,Rx,0,8,79,01,00,00,00,6F,00,00,
3775506,00000136,false,Rx,0,8,00,C0,00,80,FF,17,00,8D,
3775708,00000142,false,Rx,0,5,44,01,00,00,00,00,00,00,
3775910,00000148,false,Rx,0,8,61,01,00,00,13,00,04,00,
3776197,00000206,false,Rx,0,8,00,00,00,00,00,00,10,18,
3776407,00000119,false,Rx,0,8,4F,01,40,00,04,00,00,F0,
3776692,0000011A,false,Rx,0,8,60,01,40,00,04,00,00,00,
3779167,00000240,false,Rx,0,2,74,32,00,00,00,00,00,00,
3784999,00000118,false,Rx,0,8,2C,02,F0,20,00,00,01,00,
3785292,00000108,false,Rx,0,8,F6,02,00,00,00,E4,07,00,
3785494,00000136,false,Rx,0,8,00,C0,00,80,FF,27,00,9D,
3785695,00000142,false,Rx,0,5,45,02,00,00,00,00,00,00,
3795023,00000118,false,Rx,0,8,2D,03,F0,20,00,00,01,00,
3795234,00000108,false,Rx,0,8,16,03,00,00,00,FE,0C,00,
3795436,00000256,false,Rx,0,4,25,8D,40,00,00,00,00,00,
3795638,00000136,false,Rx,0,8,00,C0,00,80,FF,37,00,AD,
3795923,00000286,false,Rx,0,7,96,0D,00,01,04,FC,00,00,
3796043,00000142,false,Rx,0,5,46,03,00,00,00,00,00,00,
3796337,00000148,false,Rx,0,8,62,02,00,00,13,00,04,00,
3796540,00000206,false,Rx,0,8,00,00,00,00,00,00,20,28,
3796825,00000119,false,Rx,0,8,50,02,40,00,04,00,00,F0,
3797029,0000011A,false,Rx,0,8,61,02,40,00,04,00,00,00,
3799076,00000240,false,Rx,0,2,75,33,00,00,00,00,00,00,
3805001,00000118,false,Rx,0,8,2E,04,F0,20,00,00,01,00,
3805294,00000108,false,Rx,0,8,81,04,00,00,00,7F,F5,00,
3805497,00000136,false,Rx,0,8,00,C0,00,80,FF,47,00,BD,
3805699,00000142,false,Rx,0,5,47,04,00,00,00,00,00,00,
3816031,00000118,false,Rx,0,8,2F,05,F0,20,00,00,01,00,
3816159,00000108,false,Rx,0,8,20,05,00,00,00,16,FC,00,
3816246,00000136,false,Rx,0,8,00,C0,00,80,FF,57,00,CD,
3816333,00000142,false,Rx,0,5,48,05,00,00,00,00,00,00,
3816452,00000148,false,Rx,0,8,63,03,00,00,13,00,04,00,
3816539,00000206,false,Rx,0,8,00,00,00,00,00,00,30,38,
3816659,00000119,false,Rx,0,8,51,03,40,00,04,00,00,F0,
3816746,0000011A,false,Rx,0,8,62,03,40,00,04,00,00,00,
3819124,00000240,false,Rx,0,2,76,34,00,00,00,00,00,00,
3825025,00000118,false,Rx,0,8,30,06,F0,20,00,00,01,00,
3825235,00000108,false,Rx,0,8,09,06,00,00,00,F6,04,00,
3825520,00000136,false,Rx,0,8,00,C0,00,80,FF,67,00,DD,
3825639,00000142,false,Rx,0,5,49,06,00,00,00,00,00,00,
3834972,00000118,false,Rx,0,8,31,07,F0,20,00,00,01,00,
3835265,00000108,false,Rx,0,8,05,07,00,00,00,EF,06,00,
3835467,00000136,false,Rx,0,8,00,C0,00,80,FF,77,00,ED,
3835669,00000142,false,Rx,0,5,4A,07,00,00,00,00,00,00,
3835872,00000148,false,Rx,0,8,64,04,00,00,13,00,04,00,
3836167,00000206,false,Rx,0,8,00,00,00,00,00,00,40,48,
3836370,00000119,false,Rx,0,8,52,04,40,00,04,00,00,F0,
3836656,0000011A,false,Rx,0,8,63,04,40,00,04,00,00,00,
3839117,00000240,false,Rx,0,2,77,35,00,00,00,00,00,00,
3845014,00000118,false,Rx,0,8,32,08,F0,20,00,00,01,00,
3845308,00000108,false,Rx,0,8,71,08,00,00,00,5D,03,00,
3845510,00000136,false,Rx,0,8,00,C0,00,80,FF,87,00,FD,
3845713,00000142,false,Rx,0,5,4B,08,00,00,00,00,00,00,
3855061,00000118,false,Rx,0,8,33,09,F0,20,00,00,01,00,
3855354,00000108,false,Rx,0,8,50,09,00,00,00,35,09,00,
3855556,00000136,false,Rx,0,8,00,C0,00,80,FF,97,00,0D,
3855759,00000142,false,Rx,0,5,4C,09,00,00,00,00,00,00,
3855964,00000148,false,Rx,0,8,65,05,00,00,13,00,04,00,
3856256,00000206,false,Rx,0,8,00,00,00,00,00,00,50,58,
3856459,00000119,false,Rx,0,8,53,05,40,00,04,00,00,F0,
3856744,0000011A,false,Rx,0,8,64,05,40,00,04,00,00,00,
3859121,00000240,false,Rx,0,2,78,36,00,00,00,00,00,00,
3865184,00000118,false,Rx,0,8,34,0A,F0,20,00,00,01,00,
3865394,00000108,false,Rx,0,8,E9,0A,00,00,00,C7,0F,00,
3865679,00000136,false,Rx,0,8,00,C0,00,80,FF,A7,00,1D,
3865881,00000142,false,Rx,0,5,4D,0A,00,00,00,00,00,00,
3875286,00000118,false,Rx,0,8,35,0B,F0,20,00,00,01,00,
3875489,00000108,false,Rx,0,8,12,0B,00,00,00,02,FC,00,
3875774,00000136,false,Rx,0,8,00,C0,00,80,FF,B7,00,2D,
3875893,00000142,false,Rx,0,5,4E,0B,00,00,00,00,00,00,
3876188,00000148,false,Rx,0,8,66,06,00,00,13,00,04,00,
3876390,00000206,false,Rx,0,8,00,00,00,00,00,00,60,68,
3876676,00000119,false,Rx,0,8,54,06,40,00,04,00,00,F0,
3876877,0000011A,false,Rx,0,8,65,06,40,00,04,00,00,00,
3879093,00000240,false,Rx,0,2,79,37,00,00,00,00,00,00,
3885249,00000118,false,Rx,0,8,36,0C,F0,20,00,00,01,00,
3885452,00000108,false,Rx,0,8,DE,0C,00,00,00,BC,0D,00,
3885736,00000136,false,Rx,0,8,00,C0,00,80,FF,C7,00,3D,
3885941,00000142,false,Rx,0,5,4F,0C,00,00,00,00,00,00,
3895192,00000118,false,Rx,0,8,37,0D,F0,20,00,00,01,00,
3895477,00000108,false,Rx,0,8,2E,0D,00,00,00,44,D4,00,
3895680,00000256,false,Rx,0,4,26,8E,40,00,00,00,00,00,
3895882,00000136,false,Rx,0,8,00,C0,00,80,FF,D7,00,4D,
3896088,00000286,false,Rx,0,7,97,0E,00,01,04,FC,00,00,
3896299,00000142,false,Rx,0,5,50,0D,00,00,00,00,00,00,
3896500,00000148,false,Rx,0,8,67,07,00,00,13,00,04,00,
3896786,00000206,false,Rx,0,8,00,00,00,00,00,00,70,78,
3896989,00000119,false,Rx,0,8,55,07,40,00,04,00,00,F0,
3897282,0000011A,false,Rx,0,8,66,07,40,00,04,00,00,00,
3899071,00000240,false,Rx,0,2,7A,38,00,00,00,00,00,00,
3904967,00000118,false,Rx,0,8,38,0E,F0,20,00,00,01,00,
3905258,00000108,false,Rx,0,8,66,0E,00,00,00,4D,02,00,
3905461,00000136,false,Rx,0,8,00,C0,00,80,FF,E7,00,5D,
3905663,00000142,false,Rx,0,5,51,0E,00,00,00,00,00,00,
3914993,00000118,false,Rx,0,8,39,0F,F0,20,00,00,01,00,
3915203,00000108,false,Rx,0,8,07,0F,00,00,00,F0,FF,00,
3915489,00000136,false,Rx,0,8,00,C0,00,80,FF,F7,00,6D,
3915690,00000142,false,Rx,0,5,52,0F,00,00,00,00,00,00,
3915891,00000148,false,Rx,0,8,68,08,00,00,13,00,04,00,
3916187,00000206,false,Rx,0,8,00,00,00,00,00,00,80,88,
3916389,00000119,false,Rx,0,8,56,08,40,00,04,00,00,F0,
3916674,0000011A,false,Rx,0,8,67,08,40,00,04,00,00,00,
3919134,00000240,false,Rx,0,2,7B,39,00,00,00,00,00,00,
3927983,00000118,false,Rx,0,8,2A,00,F0,20,00,00,01,00,
3928072,00000108,false,Rx,0,8,DB,00,00,00,00,CA,08,00,
3928167,00000136,false,Rx,0,8,00,C0,00,80,FF,07,00,7D,
3928254,00000142,false,Rx,0,5,43,00,00,00,00,00,00,00,
3934975,00000118,false,Rx,0,8,2B,01,F0,20,00,00,01,00,
3935267,00000108,false,Rx,0,8,D9,01,00,00,00,DE,F1,00,
3935470,00000136,false,Rx,0,8,00,C0,00,80,FF,17,00,8D,
3935672,00000142,false,Rx,0,5,44,01,00,00,00,00,00,00,
3935874,00000148,false,Rx,0,8,69,09,00,00,13,00,04,00,
3936170,00000206,false,Rx,0,8,00,00,00,00,00,00,90,98,
3936371,00000119,false,Rx,0,8,57,09,40,00,04,00,00,F0,
3936657,0000011A,false,Rx,0,8,68,09,40,00,04,00,00,00,
3939117,00000240,false,Rx,0,2,7C,3A,00,00,00,00,00,00,
3945020,00000118,false,Rx,0,8,2C,02,F0,20,00,00,01,00,
3945230,00000108,false,Rx,0,8,FB,02,00,00,00,E7,09,00,
3945515,00000136,false,Rx,0,8,00,C0,00,80,FF,27,00,9D,
3945634,00000142,false,Rx,0,5,45,02,00,00,00,00,00,00,
3954971,00000118,false,Rx,0,8,2D,03,F0,20,00,00,01,00,
3955278,00000108,false,Rx,0,8,AD,03,00,00,00,A1,00,00,
3955480,00000136,false,Rx,0,8,00,C0,00,80,FF,37,00,AD,
3955682,00000142,false,Rx,0,5,46,03,00,00,00,00,00,00,
3955885,00000148,false,Rx,0,8,6A,0A,00,00,13,00,04,00,
3956181,00000206,false,Rx,0,8,00,00,00,00,00,00,A0,A8,
3956384,00000119,false,Rx,0,8,58,0A,40,00,04,00,00,F0,
3956669,0000011A,false,Rx,0,8,69,0A,40,00,04,00,00,00,
3959128,00000240,false,Rx,0,2,7D,3B,00,00,00,00,00,00,
3965025,00000118,false,Rx,0,8,2E,04,F0,20,00,00,01,00,
3965235,00000108,false,Rx,0,8,C1,04,00,00,00,B7,FD,00,
3965521,00000136,false,Rx,0,8,00,C0,00,80,FF,47,00,BD,
3965640,00000142,false,Rx,0,5,47,04,00,00,00,00,00,00,
3974990,00000118,false,Rx,0,8,2F,05,F0,20,00,00,01,00,
3975211,00000108,false,Rx,0,8,CD,05,00,00,00,C4,FB,00,
3975497,00000136,false,Rx,0,8,00,C0,00,80,FF,57,00,CD,
3975617,00000142,false,Rx,0,5,48,05,00,00,00,00,00,00,
3975902,00000148,false,Rx,0,8,6B,0B,00,00,13,00,04,00,
3976106,00000206,false,Rx,0,8,00,00,00,00,00,00,B0,B8,
3976399,00000119,false,Rx,0,8,59,0B,40,00,04,00,00,F0,
3976602,0000011A,false,Rx,0,8,6A,0B,40,00,04,00,00,00,
3984049,00000240,false,Rx,0,2,7E,3C,00,00,00,00,00,00,
3985004,00000118,false,Rx,0,8,30,06,F0,20,00,00,01,00,
3985215,00000108,false,Rx,0,8,1C,06,00,00,00,07,06,00,
3985500,00000136,false,Rx,0,8,00,C0,00,80,FF,67,00,DD,
3985702,00000142,false,Rx,0,5,49,06,00,00,00,00,00,00,
3995030,00000118,false,Rx,0,8,31,07,F0,20,00,00,01,00,
3995239,00000108,false,Rx,0,8,66,07,00,00,00,4C,0A,00,
3995442,00000256,false,Rx,0,4,27,8F,40,00,00,00,00,00,
3995644,00000136,false,Rx,0,8,00,C0,00,80,FF,77,00,ED,
3995847,00000286,false,Rx,0,7,98,0F,00,01,04,FC,00,00,
3996051,00000142,false,Rx,0,5,4A,07,00,00,00,00,00,00,
3996261,00000148,false,Rx,0,8,6C,0C,00,00,13,00,04,00,
3996545,00000206,false,Rx,0,8,00,00,00,00,00,00,C0,C8,
3996830,00000119,false,Rx,0,8,5A,0C,40,00,04,00,00,F0,
3997035,0000011A,false,Rx,0,8,6B,0C,40,00,04,00,00,00,
3999082,00000240,false,Rx,0,2,7F,3D,00,00,00,00,00,00,
4005058,00000118,false,Rx,0,8,32,08,F0,20,00,00,01,00,
4005268,00000108,false,Rx,0,8,CC,08,00,00,00,B9,02,00,
4005471,00000136,false,Rx,0,8,00,C0,00,80,FF,87,00,FD,
4005673,00000142,false,Rx,0,5,4B,08,00,00,00,00,00,00,
4015088,00000118,false,Rx,0,8,33,09,F0,20,00,00,01,00,
4015298,00000108,false,Rx,0,8,88,09,00,00,00,65,11,00,
4015583,00000136,false,Rx,0,8,00,C0,00,80,FF,97,00,0D,
4015785,00000142,false,Rx,0,5,4C,09,00,00,00,00,00,00,
4015989,00000148,false,Rx,0,8,6D,0D,00,00,13,00,04,00,
4016282,00000206,false,Rx,0,8,00,00,00,00,00,00,D0,D8,
4016485,00000119,false,Rx,0,8,5B,0D,40,00,04,00,00,F0,
4016687,0000011A,false,Rx,0,8,6C,0D,40,00,04,00,00,00,
4019068,00000240,false,Rx,0,2,80,3E,00,00,00,00,00,00,
4025216,00000118,false,Rx,0,8,34,0A,F0,20,00,00,01,00,
4025419,00000108,false,Rx,0,8,7B,0A,00,00,00,67,01,00,
4025705,00000136,false,Rx,0,8,00,C0,00,80,FF,A7,00,1D,
4025823,00000142,false,Rx,0,5,4D,0A,00,00,00,00,00,00,
4039103,00000118,false,Rx,0,8,35,0B,F0,20,00,00,01,00,
4039199,00000108,false,Rx,0,8,CF,0B,00,00,00,C3,F8,00,
4039286,00000136,false,Rx,0,8,00,C0,00,80,FF,B7,00,2D,
4039373,00000142,false,Rx,0,5,4E,0B,00,00,00,00,00,00,
4039460,00000148,false,Rx,0,8,6E,0E,00,00,13,00,04,00,
4039547,00000206,false,Rx,0,8,00,00,00,00,00,00,E0,E8,
4039649,00000119,false,Rx,0,8,5C,0E,40,00,04,00,00,F0,
4039750,0000011A,false,Rx,0,8,6D,0E,40,00,04,00,00,00,
4039837,00000240,false,Rx,0,2,81,3F,00,00,00,00,00,00,
4045230,00000118,false,Rx,0,8,36,0C,F0,20,00,00,01,00,
4045432,00000108,false,Rx,0,8,59,0C,00,00,00,51,F3,00,
4045717,00000136,false,Rx,0,8,00,C0,00,80,FF,C7,00,3D,
4045919,00000142,false,Rx,0,5,4F,0C,00,00,00,00,00,00,
4055223,00000118,false,Rx,0,8,37,0D,F0,20,00,00,01,00,
4055426,00000108,false,Rx,0,8,F1,0D,00,00,00,D3,08,00,
4055627,00000136,false,Rx,0,8,00,C0,00,80,FF,D7,00,4D,
4055829,00000142,false,Rx,0,5,50,0D,00,00,00,00,00,00,
4056116,00000148,false,Rx,0,8,6F,0F,00,00,13,00,04,00,
4056327,00000206,false,Rx,0,8,00,00,00,00,00,00,F0,F8,
4056611,00000119,false,Rx,0,8,5D,0F,40,00,04,00,00,F0,
4056814,0000011A,false,Rx,0,8,6E,0F,40,00,04,00,00,00,
4059107,00000240,false,Rx,0,2,72,30,00,00,00,00,00,00,
4065005,00000118,false,Rx,0,8,38,0E,F0,20,00,00,01,00,
4065216,00000108,false,Rx,0,8,DA,0E,00,00,00,D7,EC,00,
4065502,00000136,false,Rx,0,8,00,C0,00,80,FF,E7,00,5D,
4065620,00000142,false,Rx,0,5,51,0E,00,00,00,00,00,00,
4074943,00000118,false,Rx,0,8,39,0F,F0,20,00,00,01,00,
4075235,00000108,false,Rx,0,8,88,0F,00,00,00,77,F9,00,
4075438,00000136,false,Rx,0,8,00,C0,00,80,FF,F7,00,6D,
4075640,00000142,false,Rx,0,5,52,0F,00,00,00,00,00,00,
4075925,00000148,false,Rx,0,8,60,00,00,00,13,00,04,00,
4076130,00000206,false,Rx,0,8,00,00,00,00,00,00,00,08,
4076361,00000119,false,Rx,0,8,4E,00,40,00,04,00,00,F0,
4076654,0000011A,false,Rx,0,8,5F,00,40,00,04,00,00,00,
4079127,00000240,false,Rx,0,2,73,31,00,00,00,00,00,00,
4084937,00000118,false,Rx,0,8,2A,00,F0,20,00,00,01,00,
4085224,00000108,false,Rx,0,8,59,00,00,00,00,3B,15,00,
4085426,00000136,false,Rx,0,8,00,C0,00,80,FF,07,00,7D,
4085628,00000142,false,Rx,0,5,43,00,00,00,00,00,00,00,
4095348,00000118,false,Rx,0,8,2B,01,F0,20,00,00,01,00,
4095469,00000108,false,Rx,0,8,76,01,00,00,00,79,F3,00,
4095556,00000136,false,Rx,0,8,00,C0,00,80,FF,17,00,8D,
4095676,00000256,false,Rx,0,4,18,80,40,00,00,00,00,00,
4095794,00000142,false,Rx,0,5,44,01,00,00,00,00,00,00,
4096085,00000286,false,Rx,0,7,89,00,00,01,04,FC,00,00,
4096294,00000148,false,Rx,0,8,61,01,00,00,13,00,04,00,
4096580,00000206,false,Rx,0,8,00,00,00,00,00,00,10,18,
4096781,00000119,false,Rx,0,8,4F,01,40,00,04,00,00,F0,
4097068,0000011A,false,Rx,0,8,60,01,40,00,04,00,00,00,
4099111,00000240,false,Rx,0,2,74,32,00,00,00,00,00,00,
4105005,00000118,false,Rx,0,8,2C,02,F0,20,00,00,01,00,
4105216,00000108,false,Rx,0,8,42,02,00,00,00,45,F2,00,
4105501,00000136,false,Rx,0,8,00,C0,00,80,FF,27,00,9D,
4105621,00000142,false,Rx,0,5,45,02,00,00,00,00,00,00,
4114950,00000118,false,Rx,0,8,2D,03,F0,20,00,00,01,00,
4115237,00000108,false,Rx,0,8,83,03,00,00,00,92,E5,00,
4115438,00000136,false,Rx,0,8,00,C0,00,80,FF,37,00,AD,
4115640,00000142,false,Rx,0,5,46,03,00,00,00,00,00,00,
4115925,00000148,false,Rx,0,8,62,02,00,00,13,00,04,00,
4116128,00000206,false,Rx,0,8,00,00,00,00,00,00,20,28,
4116339,00000119,false,Rx,0,8,50,02,40,00,04,00,00,F0,
4116624,0000011A,false,Rx,0,8,61,02,40,00,04,00,00,00,
4119090,00000240,false,Rx,0,2,75,33,00,00,00,00,00,00,
4124987,00000118,false,Rx,0,8,2E,04,F0,20,00,00,01,00,
4125191,00000108,false,Rx,0,8,5A,04,00,00,00,3E,0F,00,
4125476,00000136,false,Rx,0,8,00,C0,00,80,FF,47,00,BD,
4125679,00000142,false,Rx,0,5,47,04,00,00,00,00,00,00,
4135009,00000118,false,Rx,0,8,2F,05,F0,20,00,00,01,00,
4135213,00000108,false,Rx,0,8,B8,05,00,00,00,AE,FC,00,
4135414,00000136,false,Rx,0,8,00,C0,00,80,FF,57,00,CD,
4135699,00000142,false,Rx,0,5,48,05,00,00,00,00,00,00,
4135901,00000148,false,Rx,0,8,63,03,00,00,13,00,04,00,
4136196,00000206,false,Rx,0,8,00,00,00,00,00,00,30,38,
4136399,00000119,false,Rx,0,8,51,03,40,00,04,00,00,F0,
4136600,0000011A,false,Rx,0,8,62,03,40,00,04,00,00,00,
4139062,00000240,false,Rx,0,2,76,34,00,00,00,00,00,00,
4144954,00000118,false,Rx,0,8,30,06,F0,20,00,00,01,00,
4145247,00000108,false,Rx,0,8,0E,06,00,00,00,EE,11,00,
4151561,00000136,false,Rx,0,8,00,C0,00,80,FF,67,00,DD,
4151649,00000142,false,Rx,0,5,49,06,00,00,00,00,00,00,
4154967,00000118,false,Rx,0,8,31,07,F0,20,00,00,01,00,
4155182,00000108,false,Rx,0,8,D4,07,00,00,00,BE,06,00,
4155468,00000136,false,Rx,0,8,00,C0,00,80,FF,77,00,ED,
4155669,00000142,false,Rx,0,5,4A,07,00,00,00,00,00,00,
4155871,00000148,false,Rx,0,8,64,04,00,00,13,00,04,00,
4156167,00000206,false,Rx,0,8,00,00,00,00,00,00,40,48,
4156369,00000119,false,Rx,0,8,52,04,40,00,04,00,00,F0,
4156571,0000011A,false,Rx,0,8,63,04,40,00,04,00,00,00,
4159114,00000240,false,Rx,0,2,77,35,00,00,00,00,00,00,
4165011,00000118,false,Rx,0,8,32,08,F0,20,00,00,01,00,
4165305,00000108,false,Rx,0,8,AB,08,00,00,00,B4,E6,00,
4165508,00000136,false,Rx,0,8,00,C0,00,80,FF,87,00,FD,
4165710,00000142,false,Rx,0,5,4B,08,00,00,00,00,00,00,
4175117,00000118,false,Rx,0,8,33,09,F0,20,00,00,01,00,
4175327,00000108,false,Rx,0,8,97,09,00,00,00,7F,06,00,
4175613,00000136,false,Rx,0,8,00,C0,00,80,FF,97,00,0D,
4175731,00000142,false,Rx,0,5,4C,09,00,00,00,00,00,00,
4176019,00000148,false,Rx,0,8,65,05,00,00,13,00,04,00,
4176229,00000206,false,Rx,0,8,00,00,00,00,00,00,50,58,
4176514,00000119,false,Rx,0,8,53,05,40,00,04,00,00,F0,
4176716,0000011A,false,Rx,0,8,64,05,40,00,04,00,00,00,
4179039,00000240,false,Rx,0,2,78,36,00,00,00,00,00,00,
4185198,00000118,false,Rx,0,8,34,0A,F0,20,00,00,01,00,
4185400,00000108,false,Rx,0,8,00,0A,00,00,00,F5,F8,00,
4185686,00000136,false,Rx,0,8,00,C0,00,80,FF,A7,00,1D,
4185887,00000142,false,Rx,0,5,4D,0A,00,00,00,00,00,00,
4195214,00000118,false,Rx,0,8,35,0B,F0,20,00,00,01,00,
4195416,00000108,false,Rx,0,8,65,0B,00,00,00,60,F1,00,
4195618,00000256,false,Rx,0,4,19,81,40,00,00,00,00,00,
4195820,00000136,false,Rx,0,8,00,C0,00,80,FF,B7,00,2D,
4196107,00000286,false,Rx,0,7,8A,01,00,01,04,FC,00,00,
4196234,00000142,false,Rx,0,5,4E,0B,00,00,00,00,00,00,
4196519,00000148,false,Rx,0,8,66,06,00,00,13,00,04,00,
4196720,00000206,false,Rx,0,8,00,00,00,00,00,00,60,68,
4197013,00000119,false,Rx,0,8,54,06,40,00,04,00,00,F0,
4197223,0000011A,false,Rx,0,8,65,06,40,00,04,00,00,00,
4199094,00000240,false,Rx,0,2,79,37,00,00,00,00,00,00,
4207724,00000118,false,Rx,0,8,36,0C,F0,20,00,00,01,00,
4207812,00000108,false,Rx,0,8,37,0C,00,00,00,23,FF,00,
4207899,00000136,false,Rx,0,8,00,C0,00,80,FF,C7,00,3D,
4207988,00000142,false,Rx,0,5,4F,0C,00,00,00,00,00,00,
4215217,00000118,false,Rx,0,8,37,0D,F0,20,00,00,01,00,
4215427,00000108,false,Rx,0,8,CE,0D,00,00,00,B4,04,00,
4215712,00000136,false,Rx,0,8,00,C0,00,80,FF,D7,00,4D,
4215831,00000142,false,Rx,0,5,50,0D,00,00,00,00,00,00,
4216118,00000148,false,Rx,0,8,67,07,00,00,13,00,04,00,
4216329,00000206,false,Rx,0,8,00,00,00,00,00,00,70,78,
4216615,00000119,false,Rx,0,8,55,07,40,00,04,00,00,F0,
4216817,0000011A,false,Rx,0,8,66,07,40,00,04,00,00,00,
4219111,00000240,false,Rx,0,2,7A,38,00,00,00,00,00,00,
4225007,00000118,false,Rx,0,8,38,0E,F0,20,00,00,01,00,
4225211,00000108,false,Rx,0,8,60,0E,00,00,00,3B,0E,00,
4225414,00000136,false,Rx,0,8,00,C0,00,80,FF,E7,00,5D,
4225615,00000142,false,Rx,0,5,51,0E,00,00,00,00,00,00,
4234956,00000118,false,Rx,0,8,39,0F,F0,20,00,00,01,00,
4235248,00000108,false,Rx,0,8,34,0F,00,00,00,02,1A,00,
4235450,00000136,false,Rx,0,8,00,C0,00,80,FF,F7,00,6D,
4235652,00000142,false,Rx,0,5,52,0F,00,00,00,00,00,00,
4235854,00000148,false,Rx,0,8,68,08,00,00,13,00,04,00,
4236150,00000206,false,Rx,0,8,00,00,00,00,00,00,80,88,
4236352,00000119,false,Rx,0,8,56,08,40,00,04,00,00,F0,
4236638,0000011A,false,Rx,0,8,67,08,40,00,04,00,00,00,
4239099,00000240,false,Rx,0,2,7B,39,00,00,00,00,00,00,
4244998,00000118,false,Rx,0,8,2A,00,F0,20,00,00,01,00,
4245201,00000108,false,Rx,0,8,09,00,00,00,00,04,FC,00,
4245486,00000136,false,Rx,0,8,00,C0,00,80,FF,07,00,7D,
4245605,00000142,false,Rx,0,5,43,00,00,00,00,00,00,00,
4254942,00000118,false,Rx,0,8,2B,01,F0,20,00,00,01,00,
4255246,00000108,false,Rx,0,8,E6,01,00,00,00,DF,FD,00,
4255448,00000136,false,Rx,0,8,00,C0,00,80,FF,17,00,8D,
4255650,00000142,false,Rx,0,5,44,01,00,00,00,00,00,00,
4255934,00000148,false,Rx,0,8,69,09,00,00,13,00,04,00,
4256145,00000206,false,Rx,0,8,00,00,00,00,00,00,90,98,
4256430,00000119,false,Rx,0,8,57,09,40,00,04,00,00,F0,
4256632,0000011A,false,Rx,0,8,68,09,40,00,04,00,00,00,
4263829,00000240,false,Rx,0,2,7C,3A,00,00,00,00,00,00,
4264956,00000118,false,Rx,0,8,2C,02,F0,20,00,00,01,00,
4265165,00000108,false,Rx,0,8,67,02,00,00,00,57,05,00,
4265450,00000136,false,Rx,0,8,00,C0,00,80,FF,27,00,9D,
4265652,00000142,false,Rx,0,5,45,02,00,00,00,00,00,00,
4274975,00000118,false,Rx,0,8,2D,03,F0,20,00,00,01,00,
4275185,00000108,false,Rx,0,8,9A,03,00,00,00,93,FB,00,
4275471,00000136,false,Rx,0,8,00,C0,00,80,FF,37,00,AD,
4275590,00000142,false,Rx,0,5,46,03,00,00,00,00,00,00,
4275875,00000148,false,Rx,0,8,6A,0A,00,00,13,00,04,00,
4276081,00000206,false,Rx,0,8,00,00,00,00,00,00,A0,A8,
4276374,00000119,false,Rx,0,8,58,0A,40,00,04,00,00,F0,
4276576,0000011A,false,Rx,0,8,69,0A,40,00,04,00,00,00,
4279035,00000240,false,Rx,0,2,7D,3B,00,00,00,00,00,00,
4284986,00000118,false,Rx,0,8,2E,04,F0,20,00,00,01,00,
4285189,00000108,false,Rx,0,8,A9,04,00,00,00,80,1C,00,
4285475,00000136,false,Rx,0,8,00,C0,00,80,FF,47,00,BD,
4285677,00000142,false,Rx,0,5,47,04,00,00,00,00,00,00,
4294923,00000118,false,Rx,0,8,2F,05,F0,20,00,00,01,00,
4295218,00000108,false,Rx,0,8,AE,05,00,00,00,BA,E6,00,
4295337,00000256,false,Rx,0,4,9A,02,40,00,00,00,00,00,
4295622,00000136,false,Rx,0,8,00,C0,00,80,FF,57,00,CD,
4295848,00000286,false,Rx,0,7,8B,02,00,01,04,FC,00,00,
4296052,00000142,false,Rx,0,5,48,05,00,00,00,00,00,00,
4296261,00000148,false,Rx,0,8,6B,0B,00,00,13,00,04,00,
4296546,00000206,false,Rx,0,8,00,00,00,00,00,00,B0,B8,
4296748,00000119,false,Rx,0,8,59,0B,40,00,04,00,00,F0,
4296953,0000011A,false,Rx,0,8,6A,0B,40,00,04,00,00,00,
4299084,00000240,false,Rx,0,2,7E,3C,00,00,00,00,00,00,
4304925,00000118,false,Rx,0,8,30,06,F0,20,00,00,01,00,
4305219,00000108,false,Rx,0,8,E7,06,00,00,00,DD,FB,00,
4305421,00000136,false,Rx,0,8,00,C0,00,80,FF,67,00,DD,
4305623,00000142,false,Rx,0,5,49,06,00,00,00,00,00,00,
4318893,00000118,false,Rx,0,8,31,07,F0,20,00,00,01,00,
4319014,00000108,false,Rx,0,8,E5,07,00,00,00,DE,F7,00,
4319102,00000136,false,Rx,0,8,00,C0,00,80,FF,77,00,ED,
4319197,00000142,false,Rx,0,5,4A,07,00,00,00,00,00,00,
4319284,00000148,false,Rx,0,8,6C,0C,00,00,13,00,04,00,
4319371,00000206,false,Rx,0,8,00,00,00,00,00,00,C0,C8,
4319458,00000119,false,Rx,0,8,5A,0C,40,00,04,00,00,F0,
4319545,0000011A,false,Rx,0,8,6B,0C,40,00,04,00,00,00,
4319632,00000240,false,Rx,0,2,7F,3D,00,00,00,00,00,00,
4325022,00000118,false,Rx,0,8,32,08,F0,20,00,00,01,00,
4325316,00000108,false,Rx,0,8,D5,08,00,00,00,CF,F5,00,
4325518,00000136,false,Rx,0,8,00,C0,00,80,FF,87,00,FD,
4325721,00000142,false,Rx,0,5,4B,08,00,00,00,00,00,00,
4335123,00000118,false,Rx,0,8,33,09,F0,20,00,00,01,00,
4335334,00000108,false,Rx,0,8,CF,09,00,00,00,CE,EF,00,
4335620,00000136,false,Rx,0,8,00,C0,00,80,FF,97,00,0D,
4335821,00000142,false,Rx,0,5,4C,09,00,00,00,00,00,00,
4336025,00000148,false,Rx,0,8,6D,0D,00,00,13,00,04,00,
4336236,00000206,false,Rx,0,8,00,00,00,00,00,00,D0,D8,
4336521,00000119,false,Rx,0,8,5B,0D,40,00,04,00,00,F0,
4336723,0000011A,false,Rx,0,8,6C,0D,40,00,04,00,00,00,
4339018,00000240,false,Rx,0,2,80,3E,00,00,00,00,00,00,
4345154,00000118,false,Rx,0,8,34,0A,F0,20,00,00,01,00,
4345448,00000108,false,Rx,0,8,91,0A,00,00,00,76,08,00,
4345651,00000136,false,Rx,0,8,00,C0,00,80,FF,A7,00,1D,
4345852,00000142,false,Rx,0,5,4D,0A,00,00,00,00,00,00,
4355240,00000118,false,Rx,0,8,35,0B,F0,20,00,00,01,00,
4355446,00000108,false,Rx,0,8,2F,0B,00,00,00,1C,FF,00,
4355649,00000136,false,Rx,0,8,00,C0,00,80,FF,B7,00,2D,
4355851,00000142,false,Rx,0,5,4E,0B,00,00,00,00,00,00,
4356054,00000148,false,Rx,0,8,6E,0E,00,00,13,00,04,00,
4356347,00000206,false,Rx,0,8,00,00,00,00,00,00,E0,E8,
4356549,00000119,false,Rx,0,8,5C,0E,40,00,04,00,00,F0,
4356835,0000011A,false,Rx,0,8,6D,0E,40,00,04,00,00,00,
4359046,00000240,false,Rx,0,2,81,3F,00,00,00,00,00,00,
4365196,00000118,false,Rx,0,8,36,0C,F0,20,00,00,01,00,
4365399,00000108,false,Rx,0,8,AC,0C,00,00,00,BB,DC,00,
4365683,00000136,false,Rx,0,8,00,C0,00,80,FF,C7,00,3D,
4365885,00000142,false,Rx,0,5,4F,0C,00,00,00,00,00,00,
4375064,00000118,false,Rx,0,8,37,0D,F0,20,00,00,01,00,
4375192,00000108,false,Rx,0,8,8C,0D,00,00,00,85,F1,00,
4375476,00000136,false,Rx,0,8,00,C0,00,80,FF,D7,00,4D,
4375595,00000142,false,Rx,0,5,50,0D,00,00,00,00,00,00,
4375881,00000148,false,Rx,0,8,6F,0F,00,00,13,00,04,00,
4376084,00000206,false,Rx,0,8,00,00,00,00,00,00,F0,F8,
4376378,00000119,false,Rx,0,8,5D,0F,40,00,04,00,00,F0,
4376579,0000011A,false,Rx,0,8,6E,0F,40,00,04,00,00,00,
4379039,00000240,false,Rx,0,2,72,30,00,00,00,00,00,00,
4384975,00000118,false,Rx,0,8,38,0E,F0,20,00,00,01,00,
4385205,00000108,false,Rx,0,8,F5,0E,00,00,00,D4,0A,00,
4385407,00000136,false,Rx,0,8,00,C0,00,80,FF,E7,00,5D,
4385609,00000142,false,Rx,0,5,51,0E,00,00,00,00,00,00,
4394937,00000118,false,Rx,0,8,39,0F,F0,20,00,00,01,00,
4395229,00000108,false,Rx,0,8,94,0F,00,00,00,71,0B,00,
4395432,00000136,false,Rx,0,8,00,C0,00,80,FF,F7,00,6D,
4395634,00000256,false,Rx,0,4,1B,83,40,00,00,00,00,00,
4395836,00000142,false,Rx,0,5,52,0F,00,00,00,00,00,00,
4396040,00000286,false,Rx,0,7,8C,03,00,01,04,FC,00,00,
4396250,00000148,false,Rx,0,8,60,00,00,00,13,00,04,00,
4396535,00000206,false,Rx,0,8,00,00,00,00,00,00,00,08,
4396821,00000119,false,Rx,0,8,4E,00,40,00,04,00,00,F0,
4397025,0000011A,false,Rx,0,8,5F,00,40,00,04,00,00,00,
4399071,00000240,false,Rx,0,2,73,31,00,00,00,00,00,00,
4404966,00000118,false,Rx,0,8,2A,00,F0,20,00,00,01,00,
4405175,00000108,false,Rx,0,8,E8,00,00,00,00,D6,09,00,
4405461,00000136,false,Rx,0,8,00,C0,00,80,FF,07,00,7D,
4405663,00000142,false,Rx,0,5,43,00,00,00,00,00,00,00,
4414905,00000118,false,Rx,0,8,2B,01,F0,20,00,00,01,00,
4415199,00000108,false,Rx,0,8,8B,01,00,00,00,78,09,00,
4415402,00000136,false,Rx,0,8,00,C0,00,80,FF,17,00,8D,
4415604,00000142,false,Rx,0,5,44,01,00,00,00,00,00,00,
4415889,00000148,false,Rx,0,8,61,01,00,00,13,00,04,00,
4416094,00000206,false,Rx,0,8,00,00,00,00,00,00,10,18,
4416388,00000119,false,Rx,0,8,4F,01,40,00,04,00,00,F0,
4416590,0000011A,false,Rx,0,8,60,01,40,00,04,00,00,00,
4419050,00000240,false,Rx,0,2,74,32,00,00,00,00,00,00,
4424941,00000118,false,Rx,0,8,2C,02,F0,20,00,00,01,00,
4431055,00000108,false,Rx,0,8,AE,02,00,00,00,A6,FD,00,
4431163,00000136,false,Rx,0,8,00,C0,00,80,FF,27,00,9D,
4431250,00000142,false,Rx,0,5,45,02,00,00,00,00,00,00,
4434963,00000118,false,Rx,0,8,2D,03,F0,20,00,00,01,00,
4435173,00000108,false,Rx,0,8,08,03,00,00,00,F8,04,00,
4435459,00000136,false,Rx,0,8,00,C0,00,80,FF,37,00,AD,
4435661,00000142,false,Rx,0,5,46,03,00,00,00,00,00,00,
4435863,00000148,false,Rx,0,8,62,02,00,00,13,00,04,00,
4436159,00000206,false,Rx,0,8,00,00,00,00,00,00,20,28,
4436362,00000119,false,Rx,0,8,50,02,40,00,04,00,00,F0,
4436564,0000011A,false,Rx,0,8,61,02,40,00,04,00,00,00,
4439028,00000240,false,Rx,0,2,75,33,00,00,00,00,00,00,
4444926,00000118,false,Rx,0,8,2E,04,F0,20,00,00,01,00,
4445220,00000108,false,Rx,0,8,EF,04,00,00,00,DF,03,00,
4445423,00000136,false,Rx,0,8,00,C0,00,80,FF,47,00,BD,
4445625,00000142,false,Rx,0,5,47,04,00,00,00,00,00,00,
4454963,00000118,false,Rx,0,8,2F,05,F0,20,00,00,01,00,
4455189,00000108,false,Rx,0,8,51,05,00,00,00,46,FD,00,
4455392,00000136,false,Rx,0,8,00,C0,00,80,FF,57,00,CD,
4455593,00000142,false,Rx,0,5,48,05,00,00,00,00,00,00,
4455878,00000148,false,Rx,0,8,63,03,00,00,13,00,04,00,
4456085,00000206,false,Rx,0,8,00,00,00,00,00,00,30,38,
4456295,00000119,false,Rx,0,8,51,03,40,00,04,00,00,F0,
4456580,0000011A,false,Rx,0,8,62,03,40,00,04,00,00,00,
4459039,00000240,false,Rx,0,2,76,34,00,00,00,00,00,00,
4464935,00000118,false,Rx,0,8,30,06,F0,20,00,00,01,00,
4465145,00000108,false,Rx,0,8,56,06,00,00,00,34,13,00,
4465430,00000136,false,Rx,0,8,00,C0,00,80,FF,67,00,DD,
4465631,00000142,false,Rx,0,5,49,06,00,00,00,00,00,00,
4474956,00000118,false,Rx,0,8,31,07,F0,20,00,00,01,00,
4475248,00000108,false,Rx,0,8,89,07,00,00,00,55,24,00,
4475450,00000136,false,Rx,0,8,00,C0,00,80,FF,77,00,ED,
4475653,00000142,false,Rx,0,5,4A,07,00,00,00,00,00,00,
4475854,00000148,false,Rx,0,8,64,04,00,00,13,00,04,00,
4476148,00000206,false,Rx,0,8,00,00,00,00,00,00,40,48,
4476351,00000119,false,Rx,0,8,52,04,40,00,04,00,00,F0,
4476636,0000011A,false,Rx,0,8,63,04,40,00,04,00,00,00,
4479014,00000240,false,Rx,0,2,77,35,00,00,00,00,00,00,
4487075,00000118,false,Rx,0,8,32,08,F0,20,00,00,01,00,
4487179,00000108,false,Rx,0,8,1E,08,00,00,00,FC,11,00,
4487266,00000136,false,Rx,0,8,00,C0,00,80,FF,87,00,FD,
4487353,00000142,false,Rx,0,5,4B,08,00,00,00,00,00,00,
4495087,00000118,false,Rx,0,8,33,09,F0,20,00,00,01,00,
4495297,00000108,false,Rx,0,8,8F,09,00,00,00,72,0B,00,
4495500,00000256,false,Rx,0,4,1C,84,40,00,00,00,00,00,
4495701,00000136,false,Rx,0,8,00,C0,00,80,FF,97,00,0D,
4495988,00000286,false,Rx,0,7,8D,04,00,01,04,FC,00,00,
4496198,00000142,false,Rx,0,5,4C,09,00,00,00,00,00,00,
4496400,00000148,false,Rx,0,8,65,05,00,00,13,00,04,00,
4496685,00000206,false,Rx,0,8,00,00,00,00,00,00,50,58,
4496888,00000119,false,Rx,0,8,53,05,40,00,04,00,00,F0,
4497091,0000011A,false,Rx,0,8,64,05,40,00,04,00,00,00,
4499052,00000240,false,Rx,0,2,78,36,00,00,00,00,00,00,
4505194,00000118,false,Rx,0,8,34,0A,F0,20,00,00,01,00,
4505479,00000745,false,Rx,0,8,00,00,00,00,00,00,00,00,
4505682,00000108,false,Rx,0,8,FD,0A,00,00,00,EB,FF,00,
4505969,00000745,false,Rx,0,8,01,00,00,00,00,00,00,00,
4506179,00000136,false,Rx,0,8,00,C0,00,80,FF,A7,00,1D,
4506381,00000745,false,Rx,0,8,02,00,00,00,00,00,00,00,
4506584,00000142,false,Rx,0,5,4D,0A,00,00,00,00,00,00,
4506869,00000745,false,Rx,0,8,03,00,00,F0,DE,7B,EF,01,
4507072,00000745,false,Rx,0,8,04,00,00,00,00,00,00,00,
4507365,00000745,false,Rx,0,8,05,00,00,00,00,00,B4,B4,
4507568,00000745,false,Rx,0,8,06,B4,B4,00,00,00,00,00,
4515129,00000118,false,Rx,0,8,35,0B,F0,20,00,00,01,00,
4515422,00000108,false,Rx,0,8,18,0B,00,00,00,F9,0B,00,
4515624,00000136,false,Rx,0,8,00,C0,00,80,FF,B7,00,2D,
4515827,00000142,false,Rx,0,5,4E,0B,00,00,00,00,00,00,
4516113,00000148,false,Rx,0,8,66,06,00,00,13,00,04,00,
4516322,00000206,false,Rx,0,8,00,00,00,00,00,00,60,68,
4516608,00000119,false,Rx,0,8,54,06,40,00,04,00,00,F0,
4516810,0000011A,false,Rx,0,8,65,06,40,00,04,00,00,00,
4519021,00000240,false,Rx,0,2,79,37,00,00,00,00,00,00,
4525181,00000118,false,Rx,0,8,36,0C,F0,20,00,00,01,00,
4525384,00000108,false,Rx,0,8,A5,0C,00,00,00,AF,E1,00,
4525669,00000136,false,Rx,0,8,00,C0,00,80,FF,C7,00,3D,
4525872,00000142,false,Rx,0,5,4F,0C,00,00,00,00,00,00,
4534950,00000118,false,Rx,0,8,37,0D,F0,20,00,00,01,00,
4535160,00000108,false,Rx,0,8,09,0D,00,00,00,EC,07,00,
4535362,00000136,false,Rx,0,8,00,C0,00,80,FF,D7,00,4D,
4535563,00000142,false,Rx,0,5,50,0D,00,00,00,00,00,00,
4535848,00000148,false,Rx,0,8,67,07,00,00,13,00,04,00,
4536052,00000206,false,Rx,0,8,00,00,00,00,00,00,70,78,
4536344,00000119,false,Rx,0,8,55,07,40,00,04,00,00,F0,
4536547,0000011A,false,Rx,0,8,66,07,40,00,04,00,00,00,
4544942,00000240,false,Rx,0,2,7A,38,00,00,00,00,00,00,
4545030,00000118,false,Rx,0,8,38,0E,F0,20,00,00,01,00,
4545157,00000108,false,Rx,0,8,14,0E,00,00,00,FB,02,00,
4545442,00000136,false,Rx,0,8,00,C0,00,80,FF,E7,00,5D,
4545644,00000142,false,Rx,0,5,51,0E,00,00,00,00,00,00,
4554939,00000118,false,Rx,0,8,39,0F,F0,20,00,00,01,00,
4555162,00000108,false,Rx,0,8,FD,0F,00,00,00,DF,06,00,
4555447,00000136,false,Rx,0,8,00,C0,00,80,FF,F7,00,6D,
4555566,00000142,false,Rx,0,5,52,0F,00,00,00,00,00,00,
4555852,00000148,false,Rx,0,8,68,08,00,00,13,00,04,00,
4556147,00000206,false,Rx,0,8,00,00,00,00,00,00,80,88,
4556350,00000119,false,Rx,0,8,56,08,40,00,04,00,00,F0,
4556552,0000011A,false,Rx,0,8,67,08,40,00,04,00,00,00,
4559093,00000240,false,Rx,0,2,7B,39,00,00,00,00,00,00,
4564908,00000118,false,Rx,0,8,2A,00,F0,20,00,00,01,00,
4565203,00000108,false,Rx,0,8,BE,00,00,00,00,9A,1B,00,
4565405,00000136,false,Rx,0,8,00,C0,00,80,FF,07,00,7D,
4565608,00000142,false,Rx,0,5,43,00,00,00,00,00,00,00,
4574934,00000118,false,Rx,0,8,2B,01,F0,20,00,00,01,00,
4575136,00000108,false,Rx,0,8,69,01,00,00,00,67,F8,00,
4575429,00000136,false,Rx,0,8,00,C0,00,80,FF,17,00,8D,
4575630,00000142,false,Rx,0,5,44,01,00,00,00,00,00,00,
4575832,00000148,false,Rx,0,8,69,09,00,00,13,00,04,00,
4576118,00000206,false,Rx,0,8,00,00,00,00,00,00,90,98,
4576329,00000119,false,Rx,0,8,57,09,40,00,04,00,00,F0,
4576532,0000011A,false,Rx,0,8,68,09,40,00,04,00,00,00,
4578993,00000240,false,Rx,0,2,7C,3A,00,00,00,00,00,00,
4584969,00000118,false,Rx,0,8,2C,02,F0,20,00,00,01,00,
4585178,00000108,false,Rx,0,8,2B,02,00,00,00,2D,F3,00,
4585463,00000136,false,Rx,0,8,00,C0,00,80,FF,27,00,9D,
4585581,00000142,false,Rx,0,5,45,02,00,00,00,00,00,00,
4599551,00000118,false,Rx,0,8,2D,03,F0,20,00,00,01,00,
4599639,00000108,false,Rx,0,8,58,03,00,00,00,47,05,00,
4599727,00000256,false,Rx,0,4,1D,85,40,00,00,00,00,00,
4599813,00000136,false,Rx,0,8,00,C0,00,80,FF,37,00,AD,
4599900,00000286,false,Rx,0,7,8E,05,00,01,04,FC,00,00,
4599989,00000142,false,Rx,0,5,46,03,00,00,00,00,00,00,
4600076,00000148,false,Rx,0,8,6A,0A,00,00,13,00,04,00,
4600171,00000206,false,Rx,0,8,00,00,00,00,00,00,A0,A8,
4600258,00000119,false,Rx,0,8,58,0A,40,00,04,00,00,F0,
4600345,0000011A,false,Rx,0,8,69,0A,40,00,04,00,00,00,
4600432,00000240,false,Rx,0,2,7D,3B,00,00,00,00,00,00,
4604902,00000118,false,Rx,0,8,2E,04,F0,20,00,00,01,00,
4605196,00000108,false,Rx,0,8,77,04,00,00,00,58,12,00,
4605398,00000136,false,Rx,0,8,00,C0,00,80,FF,47,00,BD,
4605601,00000142,false,Rx,0,5,47,04,00,00,00,00,00,00,
4614927,00000118,false,Rx,0,8,2F,05,F0,20,00,00,01,00,
4615130,00000108,false,Rx,0,8,75,05,00,00,00,5E,09,00,
4615423,00000136,false,Rx,0,8,00,C0,00,80,FF,57,00,CD,
4615625,00000142,false,Rx,0,5,48,05,00,00,00,00,00,00,
4615827,00000148,false,Rx,0,8,6B,0B,00,00,13,00,04,00,
4616114,00000206,false,Rx,0,8,00,00,00,00,00,00,B0,B8,
4616325,00000119,false,Rx,0,8,59,0B,40,00,04,00,00,F0,
4616527,0000011A,false,Rx,0,8,6A,0B,40,00,04,00,00,00,
4618992,00000240,false,Rx,0,2,7E,3C,00,00,00,00,00,00,
4624969,00000118,false,Rx,0,8,30,06,F0,20,00,00,01,00,
4625178,00000108,false,Rx,0,8,77,06,00,00,00,68,00,00,
4625381,00000136,false,Rx,0,8,00,C0,00,80,FF,67,00,DD,
4625583,00000142,false,Rx,0,5,49,06,00,00,00,00,00,00,
4635003,00000118,false,Rx,0,8,31,07,F0,20,00,00,01,00,
4635207,00000108,false,Rx,0,8,23,07,00,00,00,FA,19,00,
4635410,00000136,false,Rx,0,8,00,C0,00,80,FF,77,00,ED,
4635612,00000142,false,Rx,0,5,4A,07,00,00,00,00,00,00,
4635896,00000148,false,Rx,0,8,6C,0C,00,00,13,00,04,00,
4636100,00000206,false,Rx,0,8,00,00,00,00,00,00,C0,C8,
4636393,00000119,false,Rx,0,8,5A,0C,40,00,04,00,00,F0,
4636595,0000011A,false,Rx,0,8,6B,0C,40,00,04,00,00,00,
4639057,00000240,false,Rx,0,2,7F,3D,00,00,00,00,00,00,
4645034,00000118,false,Rx,0,8,32,08,F0,20,00,00,01,00,
4645328,00000108,false,Rx,0,8,18,08,00,00,00,FA,0D,00,
4645530,00000136,false,Rx,0,8,00,C0,00,80,FF,87,00,FD,
4645732,00000142,false,Rx,0,5,4B,08,00,00,00,00,00,00,
4656100,00000118,false,Rx,0,8,33,09,F0,20,00,00,01,00,
4656228,00000108,false,Rx,0,8,E3,09,00,00,00,C9,08,00,
4656315,00000136,false,Rx,0,8,00,C0,00,80,FF,97,00,0D,
4656402,00000142,false,Rx,0,5,4C,09,00,00,00,00,00,00,
4656521,00000148,false,Rx,0,8,6D,0D,00,00,13,00,04,00,
4656608,00000206,false,Rx,0,8,00,00,00,00,00,00,D0,D8,
4656728,00000119,false,Rx,0,8,5B,0D,40,00,04,00,00,F0,
4656815,0000011A,false,Rx,0,8,6C,0D,40,00,04,00,00,00,
4659027,00000240,false,Rx,0,2,80,3E,00,00,00,00,00,00,
4665181,00000118,false,Rx,0,8,34,0A,F0,20,00,00,01,00,
4665466,00000108,false,Rx,0,8,3B,0A,00,00,00,29,FF,00,
4665668,00000136,false,Rx,0,8,00,C0,00,80,FF,A7,00,1D,
4665871,00000142,false,Rx,0,5,4D,0A,00,00,00,00,00,00,
4675113,00000118,false,Rx,0,8,35,0B,F0,20,00,00,01,00,
4675406,00000108,false,Rx,0,8,AE,0B,00,00,00,AA,F0,00,
4675608,00000136,false,Rx,0,8,00,C0,00,80,FF,B7,00,2D,
4675811,00000142,false,Rx,0,5,4E,0B,00,00,00,00,00,00,
4676098,00000148,false,Rx,0,8,6E,0E,00,00,13,00,04,00,
4676309,00000206,false,Rx,0,8,00,00,00,00,00,00,E0,E8,
4676594,00000119,false,Rx,0,8,5C,0E,40,00,04,00,00,F0,
4676795,0000011A,false,Rx,0,8,6D,0E,40,00,04,00,00,00,
4679010,00000240,false,Rx,0,2,81,3F,00,00,00,00,00,00,
4685167,00000118,false,Rx,0,8,36,0C,F0,20,00,00,01,00,
4685370,00000108,false,Rx,0,8,94,0C,00,00,00,8A,F5,00,
4685655,00000136,false,Rx,0,8,00,C0,00,80,FF,C7,00,3D,
4685774,00000142,false,Rx,0,5,4F,0C,00,00,00,00,00,00,
4694893,00000118,false,Rx,0,8,37,0D,F0,20,00,00,01,00,
4695188,00000108,false,Rx,0,8,6A,0D,00,00,00,72,E2,00,
4695390,00000136,false,Rx,0,8,00,C0,00,80,FF,D7,00,4D,
4695592,00000256,false,Rx,0,4,1E,86,40,00,00,00,00,00,
4695793,00000142,false,Rx,0,5,50,0D,00,00,00,00,00,00,
4695997,00000286,false,Rx,0,7,8F,06,00,01,04,FC,00,00,
4696206,00000148,false,Rx,0,8,6F,0F,00,00,13,00,04,00,
4696492,00000206,false,Rx,0,8,00,00,00,00,00,00,F0,F8,
4696694,00000119,false,Rx,0,8,5D,0F,40,00,04,00,00,F0,
4696981,0000011A,false,Rx,0,8,6E,0F,40,00,04,00,00,00,
4699024,00000240,false,Rx,0,2,72,30,00,00,00,00,00,00,
4704923,00000118,false,Rx,0,8,38,0E,F0,20,00,00,01,00,
4705127,00000108,false,Rx,0,8,CC,0E,00,00,00,BE,F7,00,
4705421,00000136,false,Rx,0,8,00,C0,00,80,FF,E7,00,5D,
4705623,00000142,false,Rx,0,5,51,0E,00,00,00,00,00,00,
4714930,00000118,false,Rx,0,8,39,0F,F0,20,00,00,01,00,
4715134,00000108,false,Rx,0,8,A7,0F,00,00,00,94,FB,00,
4715344,00000136,false,Rx,0,8,00,C0,00,80,FF,F7,00,6D,
4715546,00000142,false,Rx,0,5,52,0F,00,00,00,00,00,00,
4715832,00000148,false,Rx,0,8,60,00,00,00,13,00,04,00,
4716036,00000206,false,Rx,0,8,00,00,00,00,00,00,00,08,
4716329,00000119,false,Rx,0,8,4E,00,40,00,04,00,00,F0,
4716531,0000011A,false,Rx,0,8,5F,00,40,00,04,00,00,00,
4719076,00000240,false,Rx,0,2,73,31,00,00,00,00,00,00,
4724883,00000118,false,Rx,0,8,2A,00,F0,20,00,00,01,00,
4725179,00000108,false,Rx,0,8,BF,00,00,00,00,B5,01,00,
4725381,00000136,false,Rx,0,8,00,C0,00,80,FF,07,00,7D,
4725583,00000142,false,Rx,0,5,43,00,00,00,00,00,00,00,
4734908,00000118,false,Rx,0,8,2B,01,F0,20,00,00,01,00,
4735202,00000108,false,Rx,0,8,C3,01,00,00,00,B1,08,00,
4735404,00000136,false,Rx,0,8,00,C0,00,80,FF,17,00,8D,
4735606,00000142,false,Rx,0,5,44,01,00,00,00,00,00,00,
4735807,00000148,false,Rx,0,8,61,01,00,00,13,00,04,00,
4736095,00000206,false,Rx,0,8,00,00,00,00,00,00,10,18,
4736305,00000119,false,Rx,0,8,4F,01,40,00,04,00,00,F0,
4736591,0000011A,false,Rx,0,8,60,01,40,00,04,00,00,00,
4739051,00000240,false,Rx,0,2,74,32,00,00,00,00,00,00,
4744942,00000118,false,Rx,0,8,2C,02,F0,20,00,00,01,00,
4745153,00000108,false,Rx,0,8,AF,02,00,00,00,AA,FA,00,
4745355,00000136,false,Rx,0,8,00,C0,00,80,FF,27,00,9D,
4745557,00000142,false,Rx,0,5,45,02,00,00,00,00,00,00,
4754887,00000118,false,Rx,0,8,2D,03,F0,20,00,00,01,00,
4755104,00000108,false,Rx,0,8,8B,03,00,00,00,81,FE,00,
4755397,00000136,false,Rx,0,8,00,C0,00,80,FF,37,00,AD,
4755599,00000142,false,Rx,0,5,46,03,00,00,00,00,00,00,
4755801,00000148,false,Rx,0,8,62,02,00,00,13,00,04,00,
4756091,00000206,false,Rx,0,8,00,00,00,00,00,00,20,28,
4756302,00000119,false,Rx,0,8,50,02,40,00,04,00,00,F0,
4756586,0000011A,false,Rx,0,8,61,02,40,00,04,00,00,00,
4759047,00000240,false,Rx,0,2,75,33,00,00,00,00,00,00,
4768042,00000118,false,Rx,0,8,2E,04,F0,20,00,00,01,00,
4768131,00000108,false,Rx,0,8,7E,04,00,00,00,6C,05,00,
4768226,00000136,false,Rx,0,8,00,C0,00,80,FF,47,00,BD,
4768313,00000142,false,Rx,0,5,47,04,00,00,00,00,00,00,
4774868,00000118,false,Rx,0,8,2F,05,F0,20,00,00,01,00,
4775161,00000108,false,Rx,0,8,41,05,00,00,00,20,13,00,
4775362,00000136,false,Rx,0,8,00,C0,00,80,FF,57,00,CD,
4775564,00000142,false,Rx,0,5,48,05,00,00,00,00,00,00,
4775849,00000148,false,Rx,0,8,63,03,00,00,13,00,04,00,
4776053,00000206,false,Rx,0,8,00,00,00,00,00,00,30,38,
4776346,00000119,false,Rx,0,8,51,03,40,00,04,00,00,F0,
4776548,0000011A,false,Rx,0,8,62,03,40,00,04,00,00,00,
4779012,00000240,false,Rx,0,2,76,34,00,00,00,00,00,00,
4784908,00000118,false,Rx,0,8,30,06,F0,20,00,00,01,00,
4785112,00000108,false,Rx,0,8,6A,06,00,00,00,4D,0E,00,
4785406,00000136,false,Rx,0,8,00,C0,00,80,FF,67,00,DD,
4785607,00000142,false,Rx,0,5,49,06,00,00,00,00,00,00,
4794975,00000118,false,Rx,0,8,31,07,F0,20,00,00,01,00,
4795196,00000108,false,Rx,0,8,D8,07,00,00,00,C4,04,00,
4795398,00000256,false,Rx,0,4,1F,87,40,00,00,00,00,00,
4795600,00000136,false,Rx,0,8,00,C0,00,80,FF,77,00,ED,
4795802,00000286,false,Rx,0,7,90,07,00,01,04,FC,00,00,
4796007,00000142,false,Rx,0,5,4A,07,00,00,00,00,00,00,
4796300,00000148,false,Rx,0,8,64,04,00,00,13,00,04,00,
4796502,00000206,false,Rx,0,8,00,00,00,00,00,00,40,48,
4796786,00000119,false,Rx,0,8,52,04,40,00,04,00,00,F0,
4796989,0000011A,false,Rx,0,8,63,04,40,00,04,00,00,00,
4799037,00000240,false,Rx,0,2,77,35,00,00,00,00,00,00,
4805047,00000118,false,Rx,0,8,32,08,F0,20,00,00,01,00,
4805256,00000108,false,Rx,0,8,FF,08,00,00,00,2C,C2,00,
4805542,00000136,false,Rx,0,8,00,C0,00,80,FF,87,00,FD,
4805744,00000142,false,Rx,0,5,4B,08,00,00,00,00,00,00,
4815090,00000118,false,Rx,0,8,33,09,F0,20,00,00,01,00,
4815383,00000108,false,Rx,0,8,60,09,00,00,00,47,07,00,
4815585,00000136,false,Rx,0,8,00,C0,00,80,FF,97,00,0D,
4815788,00000142,false,Rx,0,5,4C,09,00,00,00,00,00,00,
4815991,00000148,false,Rx,0,8,65,05,00,00,13,00,04,00,
4816285,00000206,false,Rx,0,8,00,00,00,00,00,00,50,58,
4816487,00000119,false,Rx,0,8,53,05,40,00,04,00,00,F0,
4816773,0000011A,false,Rx,0,8,64,05,40,00,04,00,00,00,
4824529,00000240,false,Rx,0,2,78,36,00,00,00,00,00,00,
4825156,00000118,false,Rx,0,8,34,0A,F0,20,00,00,01,00,
4825358,00000108,false,Rx,0,8,C5,0A,00,00,00,B6,FC,00,
4825643,00000136,false,Rx,0,8,00,C0,00,80,FF,A7,00,1D,
4825845,00000142,false,Rx,0,5,4D,0A,00,00,00,00,00,00,
4835101,00000118,false,Rx,0,8,35,0B,F0,20,00,00,01,00,
4835394,00000108,false,Rx,0,8,5B,0B,00,00,00,59,EE,00,
4835596,00000136,false,Rx,0,8,00,C0,00,80,FF,B7,00,2D,
4835799,00000142,false,Rx,0,5,4E,0B,00,00,00,00,00,00,
4836088,00000148,false,Rx,0,8,66,06,00,00,13,00,04,00,
4836382,00000206,false,Rx,0,8,00,00,00,00,00,00,60,68,
4836584,00000119,false,Rx,0,8,54,06,40,00,04,00,00,F0,
4836870,0000011A,false,Rx,0,8,65,06,40,00,04,00,00,00,
4839006,00000240,false,Rx,0,2,79,37,00,00,00,00,00,00,
4845162,00000118,false,Rx,0,8,36,0C,F0,20,00,00,01,00,
4845364,00000108,false,Rx,0,8,0C,0C,00,00,00,C5,32,00,
4845649,00000136,false,Rx,0,8,00,C0,00,80,FF,C7,00,3D,
4845767,00000142,false,Rx,0,5,4F,0C,00,00,00,00,00,00,
4854857,00000118,false,Rx,0,8,37,0D,F0,20,00,00,01,00,
4855176,00000108,false,Rx,0,8,63,0D,00,00,00,50,FD,00,
4855379,00000136,false,Rx,0,8,00,C0,00,80,FF,D7,00,4D,
4855581,00000142,false,Rx,0,5,50,0D,00,00,00,00,00,00,
4855783,00000148,false,Rx,0,8,67,07,00,00,13,00,04,00,
4856071,00000206,false,Rx,0,8,00,00,00,00,00,00,70,78,
4856283,00000119,false,Rx,0,8,55,07,40,00,04,00,00,F0,
4856567,0000011A,false,Rx,0,8,66,07,40,00,04,00,00,00,
4859029,00000240,false,Rx,0,2,7A,38,00,00,00,00,00,00,
4864927,00000118,false,Rx,0,8,38,0E,F0,20,00,00,01,00,
4865130,00000108,false,Rx,0,8,D2,0E,00,00,00,A5,16,00,
4865340,00000136,false,Rx,0,8,00,C0,00,80,FF,E7,00,5D,
4865542,00000142,false,Rx,0,5,51,0E,00,00,00,00,00,00,
4879188,00000118,false,Rx,0,8,39,0F,F0,20,00,00,01,00,
4879276,00000108,false,Rx,0,8,10,0F,00,00,00,F0,08,00,
4879363,00000136,false,Rx,0,8,00,C0,00,80,FF,F7,00,6D,
4879450,00000142,false,Rx,0,5,52,0F,00,00,00,00,00,00,
4879537,00000148,false,Rx,0,8,68,08,00,00,13,00,04,00,
4879624,00000206,false,Rx,0,8,00,00,00,00,00,00,80,88,
4879711,00000119,false,Rx,0,8,56,08,40,00,04,00,00,F0,
4879798,0000011A,false,Rx,0,8,67,08,40,00,04,00,00,00,
4879885,00000240,false,Rx,0,2,7B,39,00,00,00,00,00,00,
4884944,00000118,false,Rx,0,8,2A,00,F0,20,00,00,01,00,
4885153,00000108,false,Rx,0,8,45,00,00,00,00,37,05,00,
4885439,00000136,false,Rx,0,8,00,C0,00,80,FF,07,00,7D,
4885557,00000142,false,Rx,0,5,43,00,00,00,00,00,00,00,
4894876,00000118,false,Rx,0,8,2B,01,F0,20,00,00,01,00,
4895195,00000108,false,Rx,0,8,37,01,00,00,00,1C,11,00,
4895326,00000256,false,Rx,0,4,20,88,40,00,00,00,00,00,
4895528,00000136,false,Rx,0,8,00,C0,00,80,FF,17,00,8D,
4895730,00000286,false,Rx,0,7,91,08,00,01,04,FC,00,00,
4895931,00000142,false,Rx,0,5,44,01,00,00,00,00,00,00,
4896219,00000148,false,Rx,0,8,69,09,00,00,13,00,04,00,
4896504,00000206,false,Rx,0,8,00,00,00,00,00,00,90,98,
4896706,00000119,false,Rx,0,8,57,09,40,00,04,00,00,F0,
4896996,0000011A,false,Rx,0,8,68,09,40,00,04,00,00,00,
4898970,00000240,false,Rx,0,2,7C,3A,00,00,00,00,00,00,
4904860,00000118,false,Rx,0,8,2C,02,F0,20,00,00,01,00,
4905156,00000108,false,Rx,0,8,3B,02,00,00,00,25,0B,00,
4905358,00000136,false,Rx,0,8,00,C0,00,80,FF,27,00,9D,
4905560,00000142,false,Rx,0,5,45,02,00,00,00,00,00,00,
4914879,00000118,false,Rx,0,8,2D,03,F0,20,00,00,01,00,
4915176,00000108,false,Rx,0,8,18,03,00,00,00,04,08,00,
4915378,00000136,false,Rx,0,8,00,C0,00,80,FF,37,00,AD,
4915581,00000142,false,Rx,0,5,46,03,00,00,00,00,00,00,
4915783,00000148,false,Rx,0,8,6A,0A,00,00,13,00,04,00,
4916071,00000206,false,Rx,0,8,00,00,00,00,00,00,A0,A8,
4916281,00000119,false,Rx,0,8,58,0A,40,00,04,00,00,F0,
4916566,0000011A,false,Rx,0,8,69,0A,40,00,04,00,00,00,
4919029,00000240,false,Rx,0,2,7D,3B,00,00,00,00,00,00,
4924927,00000118,false,Rx,0,8,2E,04,F0,20,00,00,01,00,
4925131,00000108,false,Rx,0,8,95,04,00,00,00,85,03,00,
4925424,00000136,false,Rx,0,8,00,C0,00,80,FF,47,00,BD,
4925626,00000142,false,Rx,0,5,47,04,00,00,00,00,00,00,
4935781,00000118,false,Rx,0,8,2F,05,F0,20,00,00,01,00,
4935869,00000108,false,Rx,0,8,0F,05,00,00,00,13,EE,00,
4935957,00000136,false,Rx,0,8,00,C0,00,80,FF,57,00,CD,
4936077,00000142,false,Rx,0,5,48,05,00,00,00,00,00,00,
4936171,00000148,false,Rx,0,8,6B,0B,00,00,13,00,04,00,
4936291,00000206,false,Rx,0,8,00,00,00,00,00,00,B0,B8,
4936378,00000119,false,Rx,0,8,59,0B,40,00,04,00,00,F0,
4936497,0000011A,false,Rx,0,8,6A,0B,40,00,04,00,00,00,
4938953,00000240,false,Rx,0,2,7E,3C,00,00,00,00,00,00,
4944930,00000118,false,Rx,0,8,30,06,F0,20,00,00,01,00,
4945133,00000108,false,Rx,0,8,1A,06,00,00,00,07,04,00,
4945426,00000136,false,Rx,0,8,00,C0,00,80,FF,67,00,DD,
4945545,00000142,false,Rx,0,5,49,06,00,00,00,00,00,00,
4954970,00000118,false,Rx,0,8,31,07,F0,20,00,00,01,00,
4955194,00000108,false,Rx,0,8,0D,07,00,00,00,F5,08,00,
4955479,00000136,false,Rx,0,8,00,C0,00,80,FF,77,00,ED,
4955597,00000142,false,Rx,0,5,4A,07,00,00,00,00,00,00,
4955882,00000148,false,Rx,0,8,6C,0C,00,00,13,00,04,00,
4956087,00000206,false,Rx,0,8,00,00,00,00,00,00,C0,C8,
4956381,00000119,false,Rx,0,8,5A,0C,40,00,04,00,00,F0,
4956583,0000011A,false,Rx,0,8,6B,0C,40,00,04,00,00,00,
4958964,00000240,false,Rx,0,2,7F,3D,00,00,00,00,00,00,
4965021,00000118,false,Rx,0,8,32,08,F0,20,00,00,01,00,
4965315,00000108,false,Rx,0,8,CC,08,00,00,00,B4,07,00,
4965518,00000136,false,Rx,0,8,00,C0,00,80,FF,87,00,FD,
4965719,00000142,false,Rx,0,5,4B,08,00,00,00,00,00,00,
4975124,00000118,false,Rx,0,8,33,09,F0,20,00,00,01,00,
4975334,00000108,false,Rx,0,8,59,09,00,00,00,43,04,00,
4975620,00000136,false,Rx,0,8,00,C0,00,80,FF,97,00,0D,
4975822,00000142,false,Rx,0,5,4C,09,00,00,00,00,00,00,
4976027,00000148,false,Rx,0,8,6D,0D,00,00,13,00,04,00,
4976237,00000206,false,Rx,0,8,00,00,00,00,00,00,D0,D8,
4976523,00000119,false,Rx,0,8,5B,0D,40,00,04,00,00,F0,
4976724,0000011A,false,Rx,0,8,6C,0D,40,00,04,00,00,00,
4979019,00000240,false,Rx,0,2,80,3E,00,00,00,00,00,00,
4985088,00000118,false,Rx,0,8,34,0A,F0,20,00,00,01,00,
4985381,00000108,false,Rx,0,8,AA,0A,00,00,00,A0,F7,00,
4985583,00000136,false,Rx,0,8,00,C0,00,80,FF,A7,00,1D,
4991747,00000142,false,Rx,0,5,4D,0A,00,00,00,00,00,00,
4995128,00000118,false,Rx,0,8,35,0B,F0,20,00,00,01,00,
4995339,00000108,false,Rx,0,8,A1,0B,00,00,00,83,0A,00,
4995541,00000256,false,Rx,0,4,21,89,40,00,00,00,00,00,
4995743,00000136,false,Rx,0,8,00,C0,00,80,FF,B7,00,2D,
4996031,00000286,false,Rx,0,7,92,09,00,01,04,FC,00,00,
4996157,00000142,false,Rx,0,5,4E,0B,00,00,00,00,00,00,
4996443,00000148,false,Rx,0,8,6E,0E,00,00,13,00,04,00,
4996645,00000206,false,Rx,0,8,00,00,00,00,00,00,E0,E8,
4996930,00000119,false,Rx,0,8,5C,0E,40,00,04,00,00,F0,
4997160,0000011A,false,Rx,0,8,6D,0E,40,00,04,00,00,00,
4998958,00000240,false,Rx,0,2,81,3F,00,00,00,00,00,00,
5004863,00000118,false,Rx,0,8,36,0C,F0,20,00,00,01,00,
5005159,00000108,false,Rx,0,8,AC,0C,00,00,00,9A,FD,00,
5005362,00000136,false,Rx,0,8,00,C0,00,80,FF,C7,00,3D,
5005562,00000142,false,Rx,0,5,4F,0C,00,00,00,00,00,00,
5014883,00000118,false,Rx,0,8,37,0D,F0,20,00,00,01,00,
5015088,00000108,false,Rx,0,8,FC,0D,00,00,00,E6,00,00,
5015382,00000136,false,Rx,0,8,00,C0,00,80,FF,D7,00,4D,
5015501,00000142,false,Rx,0,5,50,0D,00,00,00,00,00,00,
5015786,00000148,false,Rx,0,8,6F,0F,00,00,13,00,04,00,
5015990,00000206,false,Rx,0,8,00,00,00,00,00,00,F0,F8,
5016283,00000119,false,Rx,0,8,5D,0F,40,00,04,00,00,F0,
5016485,0000011A,false,Rx,0,8,6E,0F,40,00,04,00,00,00,
5018944,00000240,false,Rx,0,2,72,30,00,00,00,00,00,00,
5024924,00000118,false,Rx,0,8,38,0E,F0,20,00,00,01,00,
5025128,00000108,false,Rx,0,8,E4,0E,00,00,00,BE,0F,00,
5025339,00000136,false,Rx,0,8,00,C0,00,80,FF,E7,00,5D,
5025541,00000142,false,Rx,0,5,51,0E,00,00,00,00,00,00,
5034879,00000118,false,Rx,0,8,39,0F,F0,20,00,00,01,00,
5035084,00000108,false,Rx,0,8,AC,0F,00,00,00,9C,F8,00,
5035378,00000136,false,Rx,0,8,00,C0,00,80,FF,F7,00,6D,
5035580,00000142,false,Rx,0,5,52,0F,00,00,00,00,00,00,
5035782,00000148,false,Rx,0,8,60,00,00,00,13,00,04,00,
5036071,00000206,false,Rx,0,8,00,00,00,00,00,00,00,08,
5036282,00000119,false,Rx,0,8,4E,00,40,00,04,00,00,F0,
5036568,0000011A,false,Rx,0,8,5F,00,40,00,04,00,00,00,
5039029,00000240,false,Rx,0,2,73,31,00,00,00,00,00,00,
5047712,00000118,false,Rx,0,8,2A,00,F0,20,00,00,01,00,
5047800,00000108,false,Rx,0,8,54,00,00,00,00,49,02,00,
5047887,00000136,false,Rx,0,8,00,C0,00,80,FF,07,00,7D,
5047975,00000142,false,Rx,0,5,43,00,00,00,00,00,00,00,
5054831,00000118,false,Rx,0,8,2B,01,F0,20,00,00,01,00,
5055129,00000108,false,Rx,0,8,E3,01,00,00,00,CB,0E,00,
5055339,00000136,false,Rx,0,8,00,C0,00,80,FF,17,00,8D,
5055542,00000142,false,Rx,0,5,44,01,00,00,00,00,00,00,
5055743,00000148,false,Rx,0,8,61,01,00,00,13,00,04,00,
5056030,00000206,false,Rx,0,8,00,00,00,00,00,00,10,18,
5056240,00000119,false,Rx,0,8,4F,01,40,00,04,00,00,F0,
5056525,0000011A,false,Rx,0,8,60,01,40,00,04,00,00,00,
5058989,00000240,false,Rx,0,2,74,32,00,00,00,00,00,00,
5064908,00000118,false,Rx,0,8,2C,02,F0,20,00,00,01,00,
5065112,00000108,false,Rx,0,8,8D,02,00,00,00,82,00,00,
5065406,00000136,false,Rx,0,8,00,C0,00,80,FF,27,00,9D,
5065525,00000142,false,Rx,0,5,45,02,00,00,00,00,00,00,
5074851,00000118,false,Rx,0,8,2D,03,F0,20,00,00,01,00,
5075145,00000108,false,Rx,0,8,2F,03,00,00,00,1F,04,00,
5075348,00000136,false,Rx,0,8,00,C0,00,80,FF,37,00,AD,
5075550,00000142,false,Rx,0,5,46,03,00,00,00,00,00,00,
5075752,00000148,false,Rx,0,8,62,02,00,00,13,00,04,00,
5076039,00000206,false,Rx,0,8,00,00,00,00,00,00,20,28,
5076249,00000119,false,Rx,0,8,50,02,40,00,04,00,00,F0,
5076534,0000011A,false,Rx,0,8,61,02,40,00,04,00,00,00,
5078997,00000240,false,Rx,0,2,75,33,00,00,00,00,00,00,
5084890,00000118,false,Rx,0,8,2E,04,F0,20,00,00,01,00,
5085094,00000108,false,Rx,0,8,A5,04,00,00,00,A4,F4,00,
5085387,00000136,false,Rx,0,8,00,C0,00,80,FF,47,00,BD,
5085506,00000142,false,Rx,0,5,47,04,00,00,00,00,00,00,
5094913,00000118,false,Rx,0,8,2F,05,F0,20,00,00,01,00,
5095117,00000108,false,Rx,0,8,D1,05,00,00,00,CC,F7,00,
5095244,00000256,false,Rx,0,4,22,8A,40,00,00,00,00,00,
5095530,00000136,false,Rx,0,8,00,C0,00,80,FF,57,00,CD,
5095732,00000286,false,Rx,0,7,93,0A,00,01,04,FC,00,00,
5095935,00000142,false,Rx,0,5,48,05,00,00,00,00,00,00,
5096145,00000148,false,Rx,0,8,63,03,00,00,13,00,04,00,
5096430,00000206,false,Rx,0,8,00,00,00,00,00,00,30,38,
5096633,00000119,false,Rx,0,8,51,03,40,00,04,00,00,F0,
5096918,0000011A,false,Rx,0,8,62,03,40,00,04,00,00,00,
5104184,00000240,false,Rx,0,2,76,34,00,00,00,00,00,00,
5104884,00000118,false,Rx,0,8,30,06,F0,20,00,00,01,00,
5105182,00000108,false,Rx,0,8,39,06,00,00,00,20,0A,00,
5105384,00000136,false,Rx,0,8,00,C0,00,80,FF,67,00,DD,
5105587,00000142,false,Rx,0,5,49,06,00,00,00,00,00,00,
5114997,00000118,false,Rx,0,8,31,07,F0,20,00,00,01,00,
5115201,00000108,false,Rx,0,8,90,07,00,00,00,78,08,00,
5115403,00000136,false,Rx,0,8,00,C0,00,80,FF,77,00,ED,
5115605,00000142,false,Rx,0,5,4A,07,00,00,00,00,00,00,
5115891,00000148,false,Rx,0,8,64,04,00,00,13,00,04,00,
5116095,00000206,false,Rx,0,8,00,00,00,00,00,00,40,48,
5116389,00000119,false,Rx,0,8,52,04,40,00,04,00,00,F0,
5116592,0000011A,false,Rx,0,8,63,04,40,00,04,00,00,00,
5118970,00000240,false,Rx,0,2,77,35,00,00,00,00,00,00,
5125028,00000118,false,Rx,0,8,32,08,F0,20,00,00,01,00,
5125321,00000108,false,Rx,0,8,1E,08,00,00,00,EC,21,00,
5125523,00000136,false,Rx,0,8,00,C0,00,80,FF,87,00,FD,
5125725,00000142,false,Rx,0,5,4B,08,00,00,00,00,00,00,
5135132,00000118,false,Rx,0,8,33,09,F0,20,00,00,01,00,
